2517-2679 rtc8564: reg-write: "Write register 02: 54" "Write reg 02: 54" "WR 02: 54" "WR" "W"
2517-2537 rtc8564: bit-vl: "Voltage low: 0" "Volt. low: 0" "VL: 0" "VL"
2537-2679 rtc8564: reg-0x02: "Second: 54" "Sec: 54" "S: 54" "S"
2700-2862 rtc8564: reg-write: "Write register 03: 03" "Write reg 03: 03" "WR 03: 03" "WR" "W"
2700-2720 rtc8564: bit-reserved: "Reserved bit" "Reserved" "Rsvd" "R"
2720-2862 rtc8564: reg-0x03: "Minute: 3" "Min: 3" "M: 3" "M"
2883-3045 rtc8564: reg-write: "Write register 04: 04" "Write reg 04: 04" "WR 04: 04" "WR" "W"
2883-2903 rtc8564: bit-reserved: "Reserved bit" "Reserved" "Rsvd" "R"
2903-2923 rtc8564: bit-reserved: "Reserved bit" "Reserved" "Rsvd" "R"
2923-3045 rtc8564: reg-0x04: "Hour: 4" "H: 4" "H"
3066-3228 rtc8564: reg-write: "Write register 05: 22" "Write reg 05: 22" "WR 05: 22" "WR" "W"
3066-3086 rtc8564: bit-reserved: "Reserved bit" "Reserved" "Rsvd" "R"
3086-3106 rtc8564: bit-reserved: "Reserved bit" "Reserved" "Rsvd" "R"
3106-3228 rtc8564: reg-0x05: "Day: 22" "D: 22" "D"
3249-3411 rtc8564: reg-write: "Write register 06: 02" "Write reg 06: 02" "WR 06: 02" "WR" "W"
3249-3269 rtc8564: bit-reserved: "Reserved bit" "Reserved" "Rsvd" "R"
3269-3289 rtc8564: bit-reserved: "Reserved bit" "Reserved" "Rsvd" "R"
3289-3310 rtc8564: bit-reserved: "Reserved bit" "Reserved" "Rsvd" "R"
3310-3330 rtc8564: bit-reserved: "Reserved bit" "Reserved" "Rsvd" "R"
3330-3350 rtc8564: bit-reserved: "Reserved bit" "Reserved" "Rsvd" "R"
3350-3411 rtc8564: reg-0x06: "Weekday: 2" "WD: 2" "WD" "W"
3432-3594 rtc8564: reg-write: "Write register 07: 11" "Write reg 07: 11" "WR 07: 11" "WR" "W"
3432-3452 rtc8564: bit-century: "Century bit: 0" "Century: 0" "Cent: 0" "C: 0" "C"
3452-3472 rtc8564: bit-reserved: "Reserved bit" "Reserved" "Rsvd" "R"
3472-3493 rtc8564: bit-reserved: "Reserved bit" "Reserved" "Rsvd" "R"
3493-3594 rtc8564: reg-0x07: "Month: 11" "Mon: 11" "M: 11" "M"
3615-3777 rtc8564: reg-write: "Write register 08: 11" "Write reg 08: 11" "WR 08: 11" "WR" "W"
3615-3777 rtc8564: reg-0x08: "Year: 11" "Y: 11" "Y"
2130-3808 rtc8564: read: "Write date/time: 22.11.11 04:03:54" "Write: 22.11.11 04:03:54" "W: 22.11.11 04:03:54"
5069-5231 rtc8564: reg-write: "Read register 02: 54" "Read reg 02: 54" "RR 02: 54" "RR" "R"
5069-5089 rtc8564: bit-vl: "Voltage low: 0" "Volt. low: 0" "VL: 0" "VL"
5089-5231 rtc8564: reg-0x02: "Second: 54" "Sec: 54" "S: 54" "S"
5252-5414 rtc8564: reg-write: "Read register 03: 03" "Read reg 03: 03" "RR 03: 03" "RR" "R"
5252-5272 rtc8564: bit-reserved: "Reserved bit" "Reserved" "Rsvd" "R"
5272-5414 rtc8564: reg-0x03: "Minute: 3" "Min: 3" "M: 3" "M"
5435-5597 rtc8564: reg-write: "Read register 04: 44" "Read reg 04: 44" "RR 04: 44" "RR" "R"
5435-5455 rtc8564: bit-reserved: "Reserved bit" "Reserved" "Rsvd" "R"
5455-5476 rtc8564: bit-reserved: "Reserved bit" "Reserved" "Rsvd" "R"
5476-5597 rtc8564: reg-0x04: "Hour: 4" "H: 4" "H"
5618-5780 rtc8564: reg-write: "Read register 05: 62" "Read reg 05: 62" "RR 05: 62" "RR" "R"
5618-5638 rtc8564: bit-reserved: "Reserved bit" "Reserved" "Rsvd" "R"
5638-5659 rtc8564: bit-reserved: "Reserved bit" "Reserved" "Rsvd" "R"
5659-5780 rtc8564: reg-0x05: "Day: 22" "D: 22" "D"
5801-5963 rtc8564: reg-write: "Read register 06: 52" "Read reg 06: 52" "RR 06: 52" "RR" "R"
5801-5821 rtc8564: bit-reserved: "Reserved bit" "Reserved" "Rsvd" "R"
5821-5842 rtc8564: bit-reserved: "Reserved bit" "Reserved" "Rsvd" "R"
5842-5862 rtc8564: bit-reserved: "Reserved bit" "Reserved" "Rsvd" "R"
5862-5882 rtc8564: bit-reserved: "Reserved bit" "Reserved" "Rsvd" "R"
5882-5903 rtc8564: bit-reserved: "Reserved bit" "Reserved" "Rsvd" "R"
5903-5963 rtc8564: reg-0x06: "Weekday: 2" "WD: 2" "WD" "W"
5984-6146 rtc8564: reg-write: "Read register 07: 51" "Read reg 07: 51" "RR 07: 51" "RR" "R"
5984-6004 rtc8564: bit-century: "Century bit: 0" "Century: 0" "Cent: 0" "C: 0" "C"
6004-6025 rtc8564: bit-reserved: "Reserved bit" "Reserved" "Rsvd" "R"
6025-6045 rtc8564: bit-reserved: "Reserved bit" "Reserved" "Rsvd" "R"
6045-6146 rtc8564: reg-0x07: "Month: 11" "Mon: 11" "M: 11" "M"
6167-6329 rtc8564: reg-write: "Read register 08: 11" "Read reg 08: 11" "RR 08: 11" "RR" "R"
6167-6329 rtc8564: reg-0x08: "Year: 11" "Y: 11" "Y"
4469-6360 rtc8564: write: "Read date/time: 22.11.11 04:03:54" "Read: 22.11.11 04:03:54" "R: 22.11.11 04:03:54"
7406-7568 rtc8564: reg-write: "Write register 02: 54" "Write reg 02: 54" "WR 02: 54" "WR" "W"
7406-7426 rtc8564: bit-vl: "Voltage low: 0" "Volt. low: 0" "VL: 0" "VL"
7426-7568 rtc8564: reg-0x02: "Second: 54" "Sec: 54" "S: 54" "S"
7589-7751 rtc8564: reg-write: "Write register 03: 03" "Write reg 03: 03" "WR 03: 03" "WR" "W"
7589-7609 rtc8564: bit-reserved: "Reserved bit" "Reserved" "Rsvd" "R"
7609-7751 rtc8564: reg-0x03: "Minute: 3" "Min: 3" "M: 3" "M"
7772-7934 rtc8564: reg-write: "Write register 04: 04" "Write reg 04: 04" "WR 04: 04" "WR" "W"
7772-7792 rtc8564: bit-reserved: "Reserved bit" "Reserved" "Rsvd" "R"
7792-7813 rtc8564: bit-reserved: "Reserved bit" "Reserved" "Rsvd" "R"
7813-7934 rtc8564: reg-0x04: "Hour: 4" "H: 4" "H"
7955-8117 rtc8564: reg-write: "Write register 05: 22" "Write reg 05: 22" "WR 05: 22" "WR" "W"
7955-7975 rtc8564: bit-reserved: "Reserved bit" "Reserved" "Rsvd" "R"
7975-7996 rtc8564: bit-reserved: "Reserved bit" "Reserved" "Rsvd" "R"
7996-8117 rtc8564: reg-0x05: "Day: 22" "D: 22" "D"
8138-8300 rtc8564: reg-write: "Write register 06: 02" "Write reg 06: 02" "WR 06: 02" "WR" "W"
8138-8158 rtc8564: bit-reserved: "Reserved bit" "Reserved" "Rsvd" "R"
8158-8179 rtc8564: bit-reserved: "Reserved bit" "Reserved" "Rsvd" "R"
8179-8199 rtc8564: bit-reserved: "Reserved bit" "Reserved" "Rsvd" "R"
8199-8219 rtc8564: bit-reserved: "Reserved bit" "Reserved" "Rsvd" "R"
8219-8240 rtc8564: bit-reserved: "Reserved bit" "Reserved" "Rsvd" "R"
8240-8300 rtc8564: reg-0x06: "Weekday: 2" "WD: 2" "WD" "W"
8321-8483 rtc8564: reg-write: "Write register 07: 11" "Write reg 07: 11" "WR 07: 11" "WR" "W"
8321-8341 rtc8564: bit-century: "Century bit: 0" "Century: 0" "Cent: 0" "C: 0" "C"
8341-8362 rtc8564: bit-reserved: "Reserved bit" "Reserved" "Rsvd" "R"
8362-8382 rtc8564: bit-reserved: "Reserved bit" "Reserved" "Rsvd" "R"
8382-8483 rtc8564: reg-0x07: "Month: 11" "Mon: 11" "M: 11" "M"
8504-8666 rtc8564: reg-write: "Write register 08: 11" "Write reg 08: 11" "WR 08: 11" "WR" "W"
8504-8666 rtc8564: reg-0x08: "Year: 11" "Y: 11" "Y"
7020-8697 rtc8564: read: "Write date/time: 22.11.11 04:03:54" "Write: 22.11.11 04:03:54" "W: 22.11.11 04:03:54"
9958-10122 rtc8564: reg-write: "Read register 02: 54" "Read reg 02: 54" "RR 02: 54" "RR" "R"
9958-9979 rtc8564: bit-vl: "Voltage low: 0" "Volt. low: 0" "VL: 0" "VL"
9979-10122 rtc8564: reg-0x02: "Second: 54" "Sec: 54" "S: 54" "S"
10141-10305 rtc8564: reg-write: "Read register 03: 03" "Read reg 03: 03" "RR 03: 03" "RR" "R"
10141-10162 rtc8564: bit-reserved: "Reserved bit" "Reserved" "Rsvd" "R"
10162-10305 rtc8564: reg-0x03: "Minute: 3" "Min: 3" "M: 3" "M"
10324-10488 rtc8564: reg-write: "Read register 04: 44" "Read reg 04: 44" "RR 04: 44" "RR" "R"
10324-10345 rtc8564: bit-reserved: "Reserved bit" "Reserved" "Rsvd" "R"
10345-10365 rtc8564: bit-reserved: "Reserved bit" "Reserved" "Rsvd" "R"
10365-10488 rtc8564: reg-0x04: "Hour: 4" "H: 4" "H"
10507-10671 rtc8564: reg-write: "Read register 05: 62" "Read reg 05: 62" "RR 05: 62" "RR" "R"
10507-10528 rtc8564: bit-reserved: "Reserved bit" "Reserved" "Rsvd" "R"
10528-10548 rtc8564: bit-reserved: "Reserved bit" "Reserved" "Rsvd" "R"
10548-10671 rtc8564: reg-0x05: "Day: 22" "D: 22" "D"
10690-10854 rtc8564: reg-write: "Read register 06: 52" "Read reg 06: 52" "RR 06: 52" "RR" "R"
10690-10711 rtc8564: bit-reserved: "Reserved bit" "Reserved" "Rsvd" "R"
10711-10731 rtc8564: bit-reserved: "Reserved bit" "Reserved" "Rsvd" "R"
10731-10751 rtc8564: bit-reserved: "Reserved bit" "Reserved" "Rsvd" "R"
10751-10772 rtc8564: bit-reserved: "Reserved bit" "Reserved" "Rsvd" "R"
10772-10792 rtc8564: bit-reserved: "Reserved bit" "Reserved" "Rsvd" "R"
10792-10854 rtc8564: reg-0x06: "Weekday: 2" "WD: 2" "WD" "W"
10873-11037 rtc8564: reg-write: "Read register 07: 51" "Read reg 07: 51" "RR 07: 51" "RR" "R"
10873-10894 rtc8564: bit-century: "Century bit: 0" "Century: 0" "Cent: 0" "C: 0" "C"
10894-10914 rtc8564: bit-reserved: "Reserved bit" "Reserved" "Rsvd" "R"
10914-10934 rtc8564: bit-reserved: "Reserved bit" "Reserved" "Rsvd" "R"
10934-11037 rtc8564: reg-0x07: "Month: 11" "Mon: 11" "M: 11" "M"
11056-11220 rtc8564: reg-write: "Read register 08: 11" "Read reg 08: 11" "RR 08: 11" "RR" "R"
11056-11220 rtc8564: reg-0x08: "Year: 11" "Y: 11" "Y"
9359-11250 rtc8564: write: "Read date/time: 22.11.11 04:03:54" "Read: 22.11.11 04:03:54" "R: 22.11.11 04:03:54"
12295-12459 rtc8564: reg-write: "Write register 02: 54" "Write reg 02: 54" "WR 02: 54" "WR" "W"
12295-12316 rtc8564: bit-vl: "Voltage low: 0" "Volt. low: 0" "VL: 0" "VL"
12316-12459 rtc8564: reg-0x02: "Second: 54" "Sec: 54" "S: 54" "S"
12478-12642 rtc8564: reg-write: "Write register 03: 03" "Write reg 03: 03" "WR 03: 03" "WR" "W"
12478-12499 rtc8564: bit-reserved: "Reserved bit" "Reserved" "Rsvd" "R"
12499-12642 rtc8564: reg-0x03: "Minute: 3" "Min: 3" "M: 3" "M"
12661-12825 rtc8564: reg-write: "Write register 04: 04" "Write reg 04: 04" "WR 04: 04" "WR" "W"
12661-12682 rtc8564: bit-reserved: "Reserved bit" "Reserved" "Rsvd" "R"
12682-12702 rtc8564: bit-reserved: "Reserved bit" "Reserved" "Rsvd" "R"
12702-12825 rtc8564: reg-0x04: "Hour: 4" "H: 4" "H"
12844-13008 rtc8564: reg-write: "Write register 05: 22" "Write reg 05: 22" "WR 05: 22" "WR" "W"
12844-12865 rtc8564: bit-reserved: "Reserved bit" "Reserved" "Rsvd" "R"
12865-12885 rtc8564: bit-reserved: "Reserved bit" "Reserved" "Rsvd" "R"
12885-13008 rtc8564: reg-0x05: "Day: 22" "D: 22" "D"
13027-13191 rtc8564: reg-write: "Write register 06: 02" "Write reg 06: 02" "WR 06: 02" "WR" "W"
13027-13048 rtc8564: bit-reserved: "Reserved bit" "Reserved" "Rsvd" "R"
13048-13068 rtc8564: bit-reserved: "Reserved bit" "Reserved" "Rsvd" "R"
13068-13088 rtc8564: bit-reserved: "Reserved bit" "Reserved" "Rsvd" "R"
13088-13109 rtc8564: bit-reserved: "Reserved bit" "Reserved" "Rsvd" "R"
13109-13129 rtc8564: bit-reserved: "Reserved bit" "Reserved" "Rsvd" "R"
13129-13191 rtc8564: reg-0x06: "Weekday: 2" "WD: 2" "WD" "W"
13210-13374 rtc8564: reg-write: "Write register 07: 11" "Write reg 07: 11" "WR 07: 11" "WR" "W"
13210-13231 rtc8564: bit-century: "Century bit: 0" "Century: 0" "Cent: 0" "C: 0" "C"
13231-13251 rtc8564: bit-reserved: "Reserved bit" "Reserved" "Rsvd" "R"
13251-13271 rtc8564: bit-reserved: "Reserved bit" "Reserved" "Rsvd" "R"
13271-13374 rtc8564: reg-0x07: "Month: 11" "Mon: 11" "M: 11" "M"
13393-13557 rtc8564: reg-write: "Write register 08: 11" "Write reg 08: 11" "WR 08: 11" "WR" "W"
13393-13557 rtc8564: reg-0x08: "Year: 11" "Y: 11" "Y"
11909-13586 rtc8564: read: "Write date/time: 22.11.11 04:03:54" "Write: 22.11.11 04:03:54" "W: 22.11.11 04:03:54"
14848-15010 rtc8564: reg-write: "Read register 02: 54" "Read reg 02: 54" "RR 02: 54" "RR" "R"
14848-14868 rtc8564: bit-vl: "Voltage low: 0" "Volt. low: 0" "VL: 0" "VL"
14868-15010 rtc8564: reg-0x02: "Second: 54" "Sec: 54" "S: 54" "S"
15031-15193 rtc8564: reg-write: "Read register 03: 03" "Read reg 03: 03" "RR 03: 03" "RR" "R"
15031-15051 rtc8564: bit-reserved: "Reserved bit" "Reserved" "Rsvd" "R"
15051-15193 rtc8564: reg-0x03: "Minute: 3" "Min: 3" "M: 3" "M"
15214-15376 rtc8564: reg-write: "Read register 04: 44" "Read reg 04: 44" "RR 04: 44" "RR" "R"
15214-15234 rtc8564: bit-reserved: "Reserved bit" "Reserved" "Rsvd" "R"
15234-15254 rtc8564: bit-reserved: "Reserved bit" "Reserved" "Rsvd" "R"
15254-15376 rtc8564: reg-0x04: "Hour: 4" "H: 4" "H"
15397-15559 rtc8564: reg-write: "Read register 05: 62" "Read reg 05: 62" "RR 05: 62" "RR" "R"
15397-15417 rtc8564: bit-reserved: "Reserved bit" "Reserved" "Rsvd" "R"
15417-15437 rtc8564: bit-reserved: "Reserved bit" "Reserved" "Rsvd" "R"
15437-15559 rtc8564: reg-0x05: "Day: 22" "D: 22" "D"
15580-15742 rtc8564: reg-write: "Read register 06: 52" "Read reg 06: 52" "RR 06: 52" "RR" "R"
15580-15600 rtc8564: bit-reserved: "Reserved bit" "Reserved" "Rsvd" "R"
15600-15620 rtc8564: bit-reserved: "Reserved bit" "Reserved" "Rsvd" "R"
15620-15641 rtc8564: bit-reserved: "Reserved bit" "Reserved" "Rsvd" "R"
15641-15661 rtc8564: bit-reserved: "Reserved bit" "Reserved" "Rsvd" "R"
15661-15681 rtc8564: bit-reserved: "Reserved bit" "Reserved" "Rsvd" "R"
15681-15742 rtc8564: reg-0x06: "Weekday: 2" "WD: 2" "WD" "W"
15763-15925 rtc8564: reg-write: "Read register 07: 51" "Read reg 07: 51" "RR 07: 51" "RR" "R"
15763-15783 rtc8564: bit-century: "Century bit: 0" "Century: 0" "Cent: 0" "C: 0" "C"
15783-15803 rtc8564: bit-reserved: "Reserved bit" "Reserved" "Rsvd" "R"
15803-15824 rtc8564: bit-reserved: "Reserved bit" "Reserved" "Rsvd" "R"
15824-15925 rtc8564: reg-0x07: "Month: 11" "Mon: 11" "M: 11" "M"
15946-16108 rtc8564: reg-write: "Read register 08: 11" "Read reg 08: 11" "RR 08: 11" "RR" "R"
15946-16108 rtc8564: reg-0x08: "Year: 11" "Y: 11" "Y"
14248-16139 rtc8564: write: "Read date/time: 22.11.11 04:03:54" "Read: 22.11.11 04:03:54" "R: 22.11.11 04:03:54"
17185-17347 rtc8564: reg-write: "Write register 02: 54" "Write reg 02: 54" "WR 02: 54" "WR" "W"
17185-17205 rtc8564: bit-vl: "Voltage low: 0" "Volt. low: 0" "VL: 0" "VL"
17205-17347 rtc8564: reg-0x02: "Second: 54" "Sec: 54" "S: 54" "S"
17368-17530 rtc8564: reg-write: "Write register 03: 03" "Write reg 03: 03" "WR 03: 03" "WR" "W"
17368-17388 rtc8564: bit-reserved: "Reserved bit" "Reserved" "Rsvd" "R"
17388-17530 rtc8564: reg-0x03: "Minute: 3" "Min: 3" "M: 3" "M"
17551-17713 rtc8564: reg-write: "Write register 04: 04" "Write reg 04: 04" "WR 04: 04" "WR" "W"
17551-17571 rtc8564: bit-reserved: "Reserved bit" "Reserved" "Rsvd" "R"
17571-17592 rtc8564: bit-reserved: "Reserved bit" "Reserved" "Rsvd" "R"
17592-17713 rtc8564: reg-0x04: "Hour: 4" "H: 4" "H"
17734-17896 rtc8564: reg-write: "Write register 05: 22" "Write reg 05: 22" "WR 05: 22" "WR" "W"
17734-17754 rtc8564: bit-reserved: "Reserved bit" "Reserved" "Rsvd" "R"
17754-17775 rtc8564: bit-reserved: "Reserved bit" "Reserved" "Rsvd" "R"
17775-17896 rtc8564: reg-0x05: "Day: 22" "D: 22" "D"
17917-18079 rtc8564: reg-write: "Write register 06: 02" "Write reg 06: 02" "WR 06: 02" "WR" "W"
17917-17937 rtc8564: bit-reserved: "Reserved bit" "Reserved" "Rsvd" "R"
17937-17958 rtc8564: bit-reserved: "Reserved bit" "Reserved" "Rsvd" "R"
17958-17978 rtc8564: bit-reserved: "Reserved bit" "Reserved" "Rsvd" "R"
17978-17998 rtc8564: bit-reserved: "Reserved bit" "Reserved" "Rsvd" "R"
17998-18019 rtc8564: bit-reserved: "Reserved bit" "Reserved" "Rsvd" "R"
18019-18079 rtc8564: reg-0x06: "Weekday: 2" "WD: 2" "WD" "W"
18100-18262 rtc8564: reg-write: "Write register 07: 11" "Write reg 07: 11" "WR 07: 11" "WR" "W"
18100-18120 rtc8564: bit-century: "Century bit: 0" "Century: 0" "Cent: 0" "C: 0" "C"
18120-18141 rtc8564: bit-reserved: "Reserved bit" "Reserved" "Rsvd" "R"
18141-18161 rtc8564: bit-reserved: "Reserved bit" "Reserved" "Rsvd" "R"
18161-18262 rtc8564: reg-0x07: "Month: 11" "Mon: 11" "M: 11" "M"
18283-18445 rtc8564: reg-write: "Write register 08: 11" "Write reg 08: 11" "WR 08: 11" "WR" "W"
18283-18445 rtc8564: reg-0x08: "Year: 11" "Y: 11" "Y"
16799-18476 rtc8564: read: "Write date/time: 22.11.11 04:03:54" "Write: 22.11.11 04:03:54" "W: 22.11.11 04:03:54"
19737-19901 rtc8564: reg-write: "Read register 02: 54" "Read reg 02: 54" "RR 02: 54" "RR" "R"
19737-19758 rtc8564: bit-vl: "Voltage low: 0" "Volt. low: 0" "VL: 0" "VL"
19758-19901 rtc8564: reg-0x02: "Second: 54" "Sec: 54" "S: 54" "S"
19920-20084 rtc8564: reg-write: "Read register 03: 03" "Read reg 03: 03" "RR 03: 03" "RR" "R"
19920-19941 rtc8564: bit-reserved: "Reserved bit" "Reserved" "Rsvd" "R"
19941-20084 rtc8564: reg-0x03: "Minute: 3" "Min: 3" "M: 3" "M"
20103-20267 rtc8564: reg-write: "Read register 04: 44" "Read reg 04: 44" "RR 04: 44" "RR" "R"
20103-20124 rtc8564: bit-reserved: "Reserved bit" "Reserved" "Rsvd" "R"
20124-20144 rtc8564: bit-reserved: "Reserved bit" "Reserved" "Rsvd" "R"
20144-20267 rtc8564: reg-0x04: "Hour: 4" "H: 4" "H"
20286-20450 rtc8564: reg-write: "Read register 05: 62" "Read reg 05: 62" "RR 05: 62" "RR" "R"
20286-20307 rtc8564: bit-reserved: "Reserved bit" "Reserved" "Rsvd" "R"
20307-20327 rtc8564: bit-reserved: "Reserved bit" "Reserved" "Rsvd" "R"
20327-20450 rtc8564: reg-0x05: "Day: 22" "D: 22" "D"
20469-20633 rtc8564: reg-write: "Read register 06: 52" "Read reg 06: 52" "RR 06: 52" "RR" "R"
20469-20490 rtc8564: bit-reserved: "Reserved bit" "Reserved" "Rsvd" "R"
20490-20510 rtc8564: bit-reserved: "Reserved bit" "Reserved" "Rsvd" "R"
20510-20530 rtc8564: bit-reserved: "Reserved bit" "Reserved" "Rsvd" "R"
20530-20551 rtc8564: bit-reserved: "Reserved bit" "Reserved" "Rsvd" "R"
20551-20571 rtc8564: bit-reserved: "Reserved bit" "Reserved" "Rsvd" "R"
20571-20633 rtc8564: reg-0x06: "Weekday: 2" "WD: 2" "WD" "W"
20652-20816 rtc8564: reg-write: "Read register 07: 51" "Read reg 07: 51" "RR 07: 51" "RR" "R"
20652-20673 rtc8564: bit-century: "Century bit: 0" "Century: 0" "Cent: 0" "C: 0" "C"
20673-20693 rtc8564: bit-reserved: "Reserved bit" "Reserved" "Rsvd" "R"
20693-20713 rtc8564: bit-reserved: "Reserved bit" "Reserved" "Rsvd" "R"
20713-20816 rtc8564: reg-0x07: "Month: 11" "Mon: 11" "M: 11" "M"
20835-20999 rtc8564: reg-write: "Read register 08: 11" "Read reg 08: 11" "RR 08: 11" "RR" "R"
20835-20999 rtc8564: reg-0x08: "Year: 11" "Y: 11" "Y"
19138-21029 rtc8564: write: "Read date/time: 22.11.11 04:03:54" "Read: 22.11.11 04:03:54" "R: 22.11.11 04:03:54"
22090-22252 rtc8564: reg-write: "Write register 02: 54" "Write reg 02: 54" "WR 02: 54" "WR" "W"
22090-22110 rtc8564: bit-vl: "Voltage low: 0" "Volt. low: 0" "VL: 0" "VL"
22110-22252 rtc8564: reg-0x02: "Second: 54" "Sec: 54" "S: 54" "S"
22273-22435 rtc8564: reg-write: "Write register 03: 03" "Write reg 03: 03" "WR 03: 03" "WR" "W"
22273-22293 rtc8564: bit-reserved: "Reserved bit" "Reserved" "Rsvd" "R"
22293-22435 rtc8564: reg-0x03: "Minute: 3" "Min: 3" "M: 3" "M"
22456-22618 rtc8564: reg-write: "Write register 04: 04" "Write reg 04: 04" "WR 04: 04" "WR" "W"
22456-22476 rtc8564: bit-reserved: "Reserved bit" "Reserved" "Rsvd" "R"
22476-22497 rtc8564: bit-reserved: "Reserved bit" "Reserved" "Rsvd" "R"
22497-22618 rtc8564: reg-0x04: "Hour: 4" "H: 4" "H"
22639-22801 rtc8564: reg-write: "Write register 05: 22" "Write reg 05: 22" "WR 05: 22" "WR" "W"
22639-22659 rtc8564: bit-reserved: "Reserved bit" "Reserved" "Rsvd" "R"
22659-22679 rtc8564: bit-reserved: "Reserved bit" "Reserved" "Rsvd" "R"
22679-22801 rtc8564: reg-0x05: "Day: 22" "D: 22" "D"
22822-22984 rtc8564: reg-write: "Write register 06: 02" "Write reg 06: 02" "WR 06: 02" "WR" "W"
22822-22842 rtc8564: bit-reserved: "Reserved bit" "Reserved" "Rsvd" "R"
22842-22863 rtc8564: bit-reserved: "Reserved bit" "Reserved" "Rsvd" "R"
22863-22883 rtc8564: bit-reserved: "Reserved bit" "Reserved" "Rsvd" "R"
22883-22903 rtc8564: bit-reserved: "Reserved bit" "Reserved" "Rsvd" "R"
22903-22924 rtc8564: bit-reserved: "Reserved bit" "Reserved" "Rsvd" "R"
22924-22984 rtc8564: reg-0x06: "Weekday: 2" "WD: 2" "WD" "W"
23005-23167 rtc8564: reg-write: "Write register 07: 11" "Write reg 07: 11" "WR 07: 11" "WR" "W"
23005-23025 rtc8564: bit-century: "Century bit: 0" "Century: 0" "Cent: 0" "C: 0" "C"
23025-23046 rtc8564: bit-reserved: "Reserved bit" "Reserved" "Rsvd" "R"
23046-23066 rtc8564: bit-reserved: "Reserved bit" "Reserved" "Rsvd" "R"
23066-23167 rtc8564: reg-0x07: "Month: 11" "Mon: 11" "M: 11" "M"
23188-23350 rtc8564: reg-write: "Write register 08: 11" "Write reg 08: 11" "WR 08: 11" "WR" "W"
23188-23350 rtc8564: reg-0x08: "Year: 11" "Y: 11" "Y"
21704-23381 rtc8564: read: "Write date/time: 22.11.11 04:03:54" "Write: 22.11.11 04:03:54" "W: 22.11.11 04:03:54"
24642-24806 rtc8564: reg-write: "Read register 02: 54" "Read reg 02: 54" "RR 02: 54" "RR" "R"
24642-24663 rtc8564: bit-vl: "Voltage low: 0" "Volt. low: 0" "VL: 0" "VL"
24663-24806 rtc8564: reg-0x02: "Second: 54" "Sec: 54" "S: 54" "S"
24825-24989 rtc8564: reg-write: "Read register 03: 03" "Read reg 03: 03" "RR 03: 03" "RR" "R"
24825-24846 rtc8564: bit-reserved: "Reserved bit" "Reserved" "Rsvd" "R"
24846-24989 rtc8564: reg-0x03: "Minute: 3" "Min: 3" "M: 3" "M"
25008-25172 rtc8564: reg-write: "Read register 04: 44" "Read reg 04: 44" "RR 04: 44" "RR" "R"
25008-25029 rtc8564: bit-reserved: "Reserved bit" "Reserved" "Rsvd" "R"
25029-25049 rtc8564: bit-reserved: "Reserved bit" "Reserved" "Rsvd" "R"
25049-25172 rtc8564: reg-0x04: "Hour: 4" "H: 4" "H"
25191-25355 rtc8564: reg-write: "Read register 05: 62" "Read reg 05: 62" "RR 05: 62" "RR" "R"
25191-25212 rtc8564: bit-reserved: "Reserved bit" "Reserved" "Rsvd" "R"
25212-25232 rtc8564: bit-reserved: "Reserved bit" "Reserved" "Rsvd" "R"
25232-25355 rtc8564: reg-0x05: "Day: 22" "D: 22" "D"
25374-25538 rtc8564: reg-write: "Read register 06: 52" "Read reg 06: 52" "RR 06: 52" "RR" "R"
25374-25395 rtc8564: bit-reserved: "Reserved bit" "Reserved" "Rsvd" "R"
25395-25415 rtc8564: bit-reserved: "Reserved bit" "Reserved" "Rsvd" "R"
25415-25435 rtc8564: bit-reserved: "Reserved bit" "Reserved" "Rsvd" "R"
25435-25456 rtc8564: bit-reserved: "Reserved bit" "Reserved" "Rsvd" "R"
25456-25476 rtc8564: bit-reserved: "Reserved bit" "Reserved" "Rsvd" "R"
25476-25538 rtc8564: reg-0x06: "Weekday: 2" "WD: 2" "WD" "W"
25557-25721 rtc8564: reg-write: "Read register 07: 51" "Read reg 07: 51" "RR 07: 51" "RR" "R"
25557-25578 rtc8564: bit-century: "Century bit: 0" "Century: 0" "Cent: 0" "C: 0" "C"
25578-25598 rtc8564: bit-reserved: "Reserved bit" "Reserved" "Rsvd" "R"
25598-25618 rtc8564: bit-reserved: "Reserved bit" "Reserved" "Rsvd" "R"
25618-25721 rtc8564: reg-0x07: "Month: 11" "Mon: 11" "M: 11" "M"
25740-25904 rtc8564: reg-write: "Read register 08: 11" "Read reg 08: 11" "RR 08: 11" "RR" "R"
25740-25904 rtc8564: reg-0x08: "Year: 11" "Y: 11" "Y"
24042-25933 rtc8564: write: "Read date/time: 22.11.11 04:03:54" "Read: 22.11.11 04:03:54" "R: 22.11.11 04:03:54"
26979-27141 rtc8564: reg-write: "Write register 02: 54" "Write reg 02: 54" "WR 02: 54" "WR" "W"
26979-26999 rtc8564: bit-vl: "Voltage low: 0" "Volt. low: 0" "VL: 0" "VL"
26999-27141 rtc8564: reg-0x02: "Second: 54" "Sec: 54" "S: 54" "S"
27162-27324 rtc8564: reg-write: "Write register 03: 03" "Write reg 03: 03" "WR 03: 03" "WR" "W"
27162-27182 rtc8564: bit-reserved: "Reserved bit" "Reserved" "Rsvd" "R"
27182-27324 rtc8564: reg-0x03: "Minute: 3" "Min: 3" "M: 3" "M"
27345-27507 rtc8564: reg-write: "Write register 04: 04" "Write reg 04: 04" "WR 04: 04" "WR" "W"
27345-27365 rtc8564: bit-reserved: "Reserved bit" "Reserved" "Rsvd" "R"
27365-27386 rtc8564: bit-reserved: "Reserved bit" "Reserved" "Rsvd" "R"
27386-27507 rtc8564: reg-0x04: "Hour: 4" "H: 4" "H"
27528-27690 rtc8564: reg-write: "Write register 05: 22" "Write reg 05: 22" "WR 05: 22" "WR" "W"
27528-27548 rtc8564: bit-reserved: "Reserved bit" "Reserved" "Rsvd" "R"
27548-27569 rtc8564: bit-reserved: "Reserved bit" "Reserved" "Rsvd" "R"
27569-27690 rtc8564: reg-0x05: "Day: 22" "D: 22" "D"
27711-27873 rtc8564: reg-write: "Write register 06: 02" "Write reg 06: 02" "WR 06: 02" "WR" "W"
27711-27731 rtc8564: bit-reserved: "Reserved bit" "Reserved" "Rsvd" "R"
27731-27752 rtc8564: bit-reserved: "Reserved bit" "Reserved" "Rsvd" "R"
27752-27772 rtc8564: bit-reserved: "Reserved bit" "Reserved" "Rsvd" "R"
27772-27792 rtc8564: bit-reserved: "Reserved bit" "Reserved" "Rsvd" "R"
27792-27813 rtc8564: bit-reserved: "Reserved bit" "Reserved" "Rsvd" "R"
27813-27873 rtc8564: reg-0x06: "Weekday: 2" "WD: 2" "WD" "W"
27894-28056 rtc8564: reg-write: "Write register 07: 11" "Write reg 07: 11" "WR 07: 11" "WR" "W"
27894-27914 rtc8564: bit-century: "Century bit: 0" "Century: 0" "Cent: 0" "C: 0" "C"
27914-27935 rtc8564: bit-reserved: "Reserved bit" "Reserved" "Rsvd" "R"
27935-27955 rtc8564: bit-reserved: "Reserved bit" "Reserved" "Rsvd" "R"
27955-28056 rtc8564: reg-0x07: "Month: 11" "Mon: 11" "M: 11" "M"
28077-28239 rtc8564: reg-write: "Write register 08: 11" "Write reg 08: 11" "WR 08: 11" "WR" "W"
28077-28239 rtc8564: reg-0x08: "Year: 11" "Y: 11" "Y"
26593-28270 rtc8564: read: "Write date/time: 22.11.11 04:03:54" "Write: 22.11.11 04:03:54" "W: 22.11.11 04:03:54"
29532-29694 rtc8564: reg-write: "Read register 02: 54" "Read reg 02: 54" "RR 02: 54" "RR" "R"
29532-29552 rtc8564: bit-vl: "Voltage low: 0" "Volt. low: 0" "VL: 0" "VL"
29552-29694 rtc8564: reg-0x02: "Second: 54" "Sec: 54" "S: 54" "S"
29715-29877 rtc8564: reg-write: "Read register 03: 03" "Read reg 03: 03" "RR 03: 03" "RR" "R"
29715-29735 rtc8564: bit-reserved: "Reserved bit" "Reserved" "Rsvd" "R"
29735-29877 rtc8564: reg-0x03: "Minute: 3" "Min: 3" "M: 3" "M"
29898-30060 rtc8564: reg-write: "Read register 04: 44" "Read reg 04: 44" "RR 04: 44" "RR" "R"
29898-29918 rtc8564: bit-reserved: "Reserved bit" "Reserved" "Rsvd" "R"
29918-29938 rtc8564: bit-reserved: "Reserved bit" "Reserved" "Rsvd" "R"
29938-30060 rtc8564: reg-0x04: "Hour: 4" "H: 4" "H"
30081-30243 rtc8564: reg-write: "Read register 05: 62" "Read reg 05: 62" "RR 05: 62" "RR" "R"
30081-30101 rtc8564: bit-reserved: "Reserved bit" "Reserved" "Rsvd" "R"
30101-30121 rtc8564: bit-reserved: "Reserved bit" "Reserved" "Rsvd" "R"
30121-30243 rtc8564: reg-0x05: "Day: 22" "D: 22" "D"
30264-30426 rtc8564: reg-write: "Read register 06: 52" "Read reg 06: 52" "RR 06: 52" "RR" "R"
30264-30284 rtc8564: bit-reserved: "Reserved bit" "Reserved" "Rsvd" "R"
30284-30304 rtc8564: bit-reserved: "Reserved bit" "Reserved" "Rsvd" "R"
30304-30325 rtc8564: bit-reserved: "Reserved bit" "Reserved" "Rsvd" "R"
30325-30345 rtc8564: bit-reserved: "Reserved bit" "Reserved" "Rsvd" "R"
30345-30365 rtc8564: bit-reserved: "Reserved bit" "Reserved" "Rsvd" "R"
30365-30426 rtc8564: reg-0x06: "Weekday: 2" "WD: 2" "WD" "W"
30447-30609 rtc8564: reg-write: "Read register 07: 51" "Read reg 07: 51" "RR 07: 51" "RR" "R"
30447-30467 rtc8564: bit-century: "Century bit: 0" "Century: 0" "Cent: 0" "C: 0" "C"
30467-30487 rtc8564: bit-reserved: "Reserved bit" "Reserved" "Rsvd" "R"
30487-30508 rtc8564: bit-reserved: "Reserved bit" "Reserved" "Rsvd" "R"
30508-30609 rtc8564: reg-0x07: "Month: 11" "Mon: 11" "M: 11" "M"
30630-30792 rtc8564: reg-write: "Read register 08: 11" "Read reg 08: 11" "RR 08: 11" "RR" "R"
30630-30792 rtc8564: reg-0x08: "Year: 11" "Y: 11" "Y"
28932-30823 rtc8564: write: "Read date/time: 22.11.11 04:03:54" "Read: 22.11.11 04:03:54" "R: 22.11.11 04:03:54"
31869-32033 rtc8564: reg-write: "Write register 02: 54" "Write reg 02: 54" "WR 02: 54" "WR" "W"
31869-31890 rtc8564: bit-vl: "Voltage low: 0" "Volt. low: 0" "VL: 0" "VL"
31890-32033 rtc8564: reg-0x02: "Second: 54" "Sec: 54" "S: 54" "S"
32052-32216 rtc8564: reg-write: "Write register 03: 03" "Write reg 03: 03" "WR 03: 03" "WR" "W"
32052-32073 rtc8564: bit-reserved: "Reserved bit" "Reserved" "Rsvd" "R"
32073-32216 rtc8564: reg-0x03: "Minute: 3" "Min: 3" "M: 3" "M"
32235-32399 rtc8564: reg-write: "Write register 04: 04" "Write reg 04: 04" "WR 04: 04" "WR" "W"
32235-32256 rtc8564: bit-reserved: "Reserved bit" "Reserved" "Rsvd" "R"
32256-32276 rtc8564: bit-reserved: "Reserved bit" "Reserved" "Rsvd" "R"
32276-32399 rtc8564: reg-0x04: "Hour: 4" "H: 4" "H"
32418-32582 rtc8564: reg-write: "Write register 05: 22" "Write reg 05: 22" "WR 05: 22" "WR" "W"
32418-32439 rtc8564: bit-reserved: "Reserved bit" "Reserved" "Rsvd" "R"
32439-32459 rtc8564: bit-reserved: "Reserved bit" "Reserved" "Rsvd" "R"
32459-32582 rtc8564: reg-0x05: "Day: 22" "D: 22" "D"
32601-32765 rtc8564: reg-write: "Write register 06: 02" "Write reg 06: 02" "WR 06: 02" "WR" "W"
32601-32622 rtc8564: bit-reserved: "Reserved bit" "Reserved" "Rsvd" "R"
32622-32642 rtc8564: bit-reserved: "Reserved bit" "Reserved" "Rsvd" "R"
32642-32662 rtc8564: bit-reserved: "Reserved bit" "Reserved" "Rsvd" "R"
32662-32683 rtc8564: bit-reserved: "Reserved bit" "Reserved" "Rsvd" "R"
32683-32703 rtc8564: bit-reserved: "Reserved bit" "Reserved" "Rsvd" "R"
32703-32765 rtc8564: reg-0x06: "Weekday: 2" "WD: 2" "WD" "W"
32784-32948 rtc8564: reg-write: "Write register 07: 11" "Write reg 07: 11" "WR 07: 11" "WR" "W"
32784-32805 rtc8564: bit-century: "Century bit: 0" "Century: 0" "Cent: 0" "C: 0" "C"
32805-32825 rtc8564: bit-reserved: "Reserved bit" "Reserved" "Rsvd" "R"
32825-32845 rtc8564: bit-reserved: "Reserved bit" "Reserved" "Rsvd" "R"
32845-32948 rtc8564: reg-0x07: "Month: 11" "Mon: 11" "M: 11" "M"
32967-33131 rtc8564: reg-write: "Write register 08: 11" "Write reg 08: 11" "WR 08: 11" "WR" "W"
32967-33131 rtc8564: reg-0x08: "Year: 11" "Y: 11" "Y"
31483-33160 rtc8564: read: "Write date/time: 22.11.11 04:03:54" "Write: 22.11.11 04:03:54" "W: 22.11.11 04:03:54"
34438-34600 rtc8564: reg-write: "Read register 02: 54" "Read reg 02: 54" "RR 02: 54" "RR" "R"
34438-34458 rtc8564: bit-vl: "Voltage low: 0" "Volt. low: 0" "VL: 0" "VL"
34458-34600 rtc8564: reg-0x02: "Second: 54" "Sec: 54" "S: 54" "S"
34621-34783 rtc8564: reg-write: "Read register 03: 03" "Read reg 03: 03" "RR 03: 03" "RR" "R"
34621-34641 rtc8564: bit-reserved: "Reserved bit" "Reserved" "Rsvd" "R"
34641-34783 rtc8564: reg-0x03: "Minute: 3" "Min: 3" "M: 3" "M"
34804-34966 rtc8564: reg-write: "Read register 04: 44" "Read reg 04: 44" "RR 04: 44" "RR" "R"
34804-34824 rtc8564: bit-reserved: "Reserved bit" "Reserved" "Rsvd" "R"
34824-34844 rtc8564: bit-reserved: "Reserved bit" "Reserved" "Rsvd" "R"
34844-34966 rtc8564: reg-0x04: "Hour: 4" "H: 4" "H"
34987-35149 rtc8564: reg-write: "Read register 05: 62" "Read reg 05: 62" "RR 05: 62" "RR" "R"
34987-35007 rtc8564: bit-reserved: "Reserved bit" "Reserved" "Rsvd" "R"
35007-35027 rtc8564: bit-reserved: "Reserved bit" "Reserved" "Rsvd" "R"
35027-35149 rtc8564: reg-0x05: "Day: 22" "D: 22" "D"
35170-35332 rtc8564: reg-write: "Read register 06: 52" "Read reg 06: 52" "RR 06: 52" "RR" "R"
35170-35190 rtc8564: bit-reserved: "Reserved bit" "Reserved" "Rsvd" "R"
35190-35210 rtc8564: bit-reserved: "Reserved bit" "Reserved" "Rsvd" "R"
35210-35231 rtc8564: bit-reserved: "Reserved bit" "Reserved" "Rsvd" "R"
35231-35251 rtc8564: bit-reserved: "Reserved bit" "Reserved" "Rsvd" "R"
35251-35271 rtc8564: bit-reserved: "Reserved bit" "Reserved" "Rsvd" "R"
35271-35332 rtc8564: reg-0x06: "Weekday: 2" "WD: 2" "WD" "W"
35353-35515 rtc8564: reg-write: "Read register 07: 51" "Read reg 07: 51" "RR 07: 51" "RR" "R"
35353-35373 rtc8564: bit-century: "Century bit: 0" "Century: 0" "Cent: 0" "C: 0" "C"
35373-35393 rtc8564: bit-reserved: "Reserved bit" "Reserved" "Rsvd" "R"
35393-35414 rtc8564: bit-reserved: "Reserved bit" "Reserved" "Rsvd" "R"
35414-35515 rtc8564: reg-0x07: "Month: 11" "Mon: 11" "M: 11" "M"
35536-35698 rtc8564: reg-write: "Read register 08: 11" "Read reg 08: 11" "RR 08: 11" "RR" "R"
35536-35698 rtc8564: reg-0x08: "Year: 11" "Y: 11" "Y"
33838-35729 rtc8564: write: "Read date/time: 22.11.11 04:03:54" "Read: 22.11.11 04:03:54" "R: 22.11.11 04:03:54"
36775-36939 rtc8564: reg-write: "Write register 02: 54" "Write reg 02: 54" "WR 02: 54" "WR" "W"
36775-36796 rtc8564: bit-vl: "Voltage low: 0" "Volt. low: 0" "VL: 0" "VL"
36796-36939 rtc8564: reg-0x02: "Second: 54" "Sec: 54" "S: 54" "S"
36958-37122 rtc8564: reg-write: "Write register 03: 03" "Write reg 03: 03" "WR 03: 03" "WR" "W"
36958-36979 rtc8564: bit-reserved: "Reserved bit" "Reserved" "Rsvd" "R"
36979-37122 rtc8564: reg-0x03: "Minute: 3" "Min: 3" "M: 3" "M"
37141-37305 rtc8564: reg-write: "Write register 04: 04" "Write reg 04: 04" "WR 04: 04" "WR" "W"
37141-37162 rtc8564: bit-reserved: "Reserved bit" "Reserved" "Rsvd" "R"
37162-37182 rtc8564: bit-reserved: "Reserved bit" "Reserved" "Rsvd" "R"
37182-37305 rtc8564: reg-0x04: "Hour: 4" "H: 4" "H"
37324-37488 rtc8564: reg-write: "Write register 05: 22" "Write reg 05: 22" "WR 05: 22" "WR" "W"
37324-37345 rtc8564: bit-reserved: "Reserved bit" "Reserved" "Rsvd" "R"
37345-37365 rtc8564: bit-reserved: "Reserved bit" "Reserved" "Rsvd" "R"
37365-37488 rtc8564: reg-0x05: "Day: 22" "D: 22" "D"
37507-37671 rtc8564: reg-write: "Write register 06: 02" "Write reg 06: 02" "WR 06: 02" "WR" "W"
37507-37528 rtc8564: bit-reserved: "Reserved bit" "Reserved" "Rsvd" "R"
37528-37548 rtc8564: bit-reserved: "Reserved bit" "Reserved" "Rsvd" "R"
37548-37568 rtc8564: bit-reserved: "Reserved bit" "Reserved" "Rsvd" "R"
37568-37589 rtc8564: bit-reserved: "Reserved bit" "Reserved" "Rsvd" "R"
37589-37609 rtc8564: bit-reserved: "Reserved bit" "Reserved" "Rsvd" "R"
37609-37671 rtc8564: reg-0x06: "Weekday: 2" "WD: 2" "WD" "W"
37690-37854 rtc8564: reg-write: "Write register 07: 11" "Write reg 07: 11" "WR 07: 11" "WR" "W"
37690-37711 rtc8564: bit-century: "Century bit: 0" "Century: 0" "Cent: 0" "C: 0" "C"
37711-37731 rtc8564: bit-reserved: "Reserved bit" "Reserved" "Rsvd" "R"
37731-37751 rtc8564: bit-reserved: "Reserved bit" "Reserved" "Rsvd" "R"
37751-37854 rtc8564: reg-0x07: "Month: 11" "Mon: 11" "M: 11" "M"
37873-38037 rtc8564: reg-write: "Write register 08: 11" "Write reg 08: 11" "WR 08: 11" "WR" "W"
37873-38037 rtc8564: reg-0x08: "Year: 11" "Y: 11" "Y"
36389-38067 rtc8564: read: "Write date/time: 22.11.11 04:03:54" "Write: 22.11.11 04:03:54" "W: 22.11.11 04:03:54"
39344-39506 rtc8564: reg-write: "Read register 02: 54" "Read reg 02: 54" "RR 02: 54" "RR" "R"
39344-39364 rtc8564: bit-vl: "Voltage low: 0" "Volt. low: 0" "VL: 0" "VL"
39364-39506 rtc8564: reg-0x02: "Second: 54" "Sec: 54" "S: 54" "S"
39527-39689 rtc8564: reg-write: "Read register 03: 03" "Read reg 03: 03" "RR 03: 03" "RR" "R"
39527-39547 rtc8564: bit-reserved: "Reserved bit" "Reserved" "Rsvd" "R"
39547-39689 rtc8564: reg-0x03: "Minute: 3" "Min: 3" "M: 3" "M"
39710-39872 rtc8564: reg-write: "Read register 04: 44" "Read reg 04: 44" "RR 04: 44" "RR" "R"
39710-39730 rtc8564: bit-reserved: "Reserved bit" "Reserved" "Rsvd" "R"
39730-39751 rtc8564: bit-reserved: "Reserved bit" "Reserved" "Rsvd" "R"
39751-39872 rtc8564: reg-0x04: "Hour: 4" "H: 4" "H"
39893-40055 rtc8564: reg-write: "Read register 05: 62" "Read reg 05: 62" "RR 05: 62" "RR" "R"
39893-39913 rtc8564: bit-reserved: "Reserved bit" "Reserved" "Rsvd" "R"
39913-39934 rtc8564: bit-reserved: "Reserved bit" "Reserved" "Rsvd" "R"
39934-40055 rtc8564: reg-0x05: "Day: 22" "D: 22" "D"
40076-40238 rtc8564: reg-write: "Read register 06: 52" "Read reg 06: 52" "RR 06: 52" "RR" "R"
40076-40096 rtc8564: bit-reserved: "Reserved bit" "Reserved" "Rsvd" "R"
40096-40117 rtc8564: bit-reserved: "Reserved bit" "Reserved" "Rsvd" "R"
40117-40137 rtc8564: bit-reserved: "Reserved bit" "Reserved" "Rsvd" "R"
40137-40157 rtc8564: bit-reserved: "Reserved bit" "Reserved" "Rsvd" "R"
40157-40178 rtc8564: bit-reserved: "Reserved bit" "Reserved" "Rsvd" "R"
40178-40238 rtc8564: reg-0x06: "Weekday: 2" "WD: 2" "WD" "W"
40259-40421 rtc8564: reg-write: "Read register 07: 51" "Read reg 07: 51" "RR 07: 51" "RR" "R"
40259-40279 rtc8564: bit-century: "Century bit: 0" "Century: 0" "Cent: 0" "C: 0" "C"
40279-40300 rtc8564: bit-reserved: "Reserved bit" "Reserved" "Rsvd" "R"
40300-40320 rtc8564: bit-reserved: "Reserved bit" "Reserved" "Rsvd" "R"
40320-40421 rtc8564: reg-0x07: "Month: 11" "Mon: 11" "M: 11" "M"
40442-40604 rtc8564: reg-write: "Read register 08: 11" "Read reg 08: 11" "RR 08: 11" "RR" "R"
40442-40604 rtc8564: reg-0x08: "Year: 11" "Y: 11" "Y"
38744-40635 rtc8564: write: "Read date/time: 22.11.11 04:03:54" "Read: 22.11.11 04:03:54" "R: 22.11.11 04:03:54"
41682-41844 rtc8564: reg-write: "Write register 02: 54" "Write reg 02: 54" "WR 02: 54" "WR" "W"
41682-41702 rtc8564: bit-vl: "Voltage low: 0" "Volt. low: 0" "VL: 0" "VL"
41702-41844 rtc8564: reg-0x02: "Second: 54" "Sec: 54" "S: 54" "S"
41865-42027 rtc8564: reg-write: "Write register 03: 03" "Write reg 03: 03" "WR 03: 03" "WR" "W"
41865-41885 rtc8564: bit-reserved: "Reserved bit" "Reserved" "Rsvd" "R"
41885-42027 rtc8564: reg-0x03: "Minute: 3" "Min: 3" "M: 3" "M"
42048-42210 rtc8564: reg-write: "Write register 04: 04" "Write reg 04: 04" "WR 04: 04" "WR" "W"
42048-42068 rtc8564: bit-reserved: "Reserved bit" "Reserved" "Rsvd" "R"
42068-42088 rtc8564: bit-reserved: "Reserved bit" "Reserved" "Rsvd" "R"
42088-42210 rtc8564: reg-0x04: "Hour: 4" "H: 4" "H"
42231-42393 rtc8564: reg-write: "Write register 05: 22" "Write reg 05: 22" "WR 05: 22" "WR" "W"
42231-42251 rtc8564: bit-reserved: "Reserved bit" "Reserved" "Rsvd" "R"
42251-42271 rtc8564: bit-reserved: "Reserved bit" "Reserved" "Rsvd" "R"
42271-42393 rtc8564: reg-0x05: "Day: 22" "D: 22" "D"
42414-42576 rtc8564: reg-write: "Write register 06: 02" "Write reg 06: 02" "WR 06: 02" "WR" "W"
42414-42434 rtc8564: bit-reserved: "Reserved bit" "Reserved" "Rsvd" "R"
42434-42454 rtc8564: bit-reserved: "Reserved bit" "Reserved" "Rsvd" "R"
42454-42475 rtc8564: bit-reserved: "Reserved bit" "Reserved" "Rsvd" "R"
42475-42495 rtc8564: bit-reserved: "Reserved bit" "Reserved" "Rsvd" "R"
42495-42515 rtc8564: bit-reserved: "Reserved bit" "Reserved" "Rsvd" "R"
42515-42576 rtc8564: reg-0x06: "Weekday: 2" "WD: 2" "WD" "W"
42597-42759 rtc8564: reg-write: "Write register 07: 11" "Write reg 07: 11" "WR 07: 11" "WR" "W"
42597-42617 rtc8564: bit-century: "Century bit: 0" "Century: 0" "Cent: 0" "C: 0" "C"
42617-42637 rtc8564: bit-reserved: "Reserved bit" "Reserved" "Rsvd" "R"
42637-42658 rtc8564: bit-reserved: "Reserved bit" "Reserved" "Rsvd" "R"
42658-42759 rtc8564: reg-0x07: "Month: 11" "Mon: 11" "M: 11" "M"
42780-42942 rtc8564: reg-write: "Write register 08: 11" "Write reg 08: 11" "WR 08: 11" "WR" "W"
42780-42942 rtc8564: reg-0x08: "Year: 11" "Y: 11" "Y"
41295-42973 rtc8564: read: "Write date/time: 22.11.11 04:03:54" "Write: 22.11.11 04:03:54" "W: 22.11.11 04:03:54"
44234-44396 rtc8564: reg-write: "Read register 02: 54" "Read reg 02: 54" "RR 02: 54" "RR" "R"
44234-44254 rtc8564: bit-vl: "Voltage low: 0" "Volt. low: 0" "VL: 0" "VL"
44254-44396 rtc8564: reg-0x02: "Second: 54" "Sec: 54" "S: 54" "S"
44417-44579 rtc8564: reg-write: "Read register 03: 03" "Read reg 03: 03" "RR 03: 03" "RR" "R"
44417-44437 rtc8564: bit-reserved: "Reserved bit" "Reserved" "Rsvd" "R"
44437-44579 rtc8564: reg-0x03: "Minute: 3" "Min: 3" "M: 3" "M"
44600-44762 rtc8564: reg-write: "Read register 04: 44" "Read reg 04: 44" "RR 04: 44" "RR" "R"
44600-44620 rtc8564: bit-reserved: "Reserved bit" "Reserved" "Rsvd" "R"
44620-44641 rtc8564: bit-reserved: "Reserved bit" "Reserved" "Rsvd" "R"
44641-44762 rtc8564: reg-0x04: "Hour: 4" "H: 4" "H"
44783-44945 rtc8564: reg-write: "Read register 05: 62" "Read reg 05: 62" "RR 05: 62" "RR" "R"
44783-44803 rtc8564: bit-reserved: "Reserved bit" "Reserved" "Rsvd" "R"
44803-44824 rtc8564: bit-reserved: "Reserved bit" "Reserved" "Rsvd" "R"
44824-44945 rtc8564: reg-0x05: "Day: 22" "D: 22" "D"
44966-45128 rtc8564: reg-write: "Read register 06: 52" "Read reg 06: 52" "RR 06: 52" "RR" "R"
44966-44986 rtc8564: bit-reserved: "Reserved bit" "Reserved" "Rsvd" "R"
44986-45007 rtc8564: bit-reserved: "Reserved bit" "Reserved" "Rsvd" "R"
45007-45027 rtc8564: bit-reserved: "Reserved bit" "Reserved" "Rsvd" "R"
45027-45047 rtc8564: bit-reserved: "Reserved bit" "Reserved" "Rsvd" "R"
45047-45068 rtc8564: bit-reserved: "Reserved bit" "Reserved" "Rsvd" "R"
45068-45128 rtc8564: reg-0x06: "Weekday: 2" "WD: 2" "WD" "W"
45149-45311 rtc8564: reg-write: "Read register 07: 51" "Read reg 07: 51" "RR 07: 51" "RR" "R"
45149-45169 rtc8564: bit-century: "Century bit: 0" "Century: 0" "Cent: 0" "C: 0" "C"
45169-45190 rtc8564: bit-reserved: "Reserved bit" "Reserved" "Rsvd" "R"
45190-45210 rtc8564: bit-reserved: "Reserved bit" "Reserved" "Rsvd" "R"
45210-45311 rtc8564: reg-0x07: "Month: 11" "Mon: 11" "M: 11" "M"
45332-45494 rtc8564: reg-write: "Read register 08: 11" "Read reg 08: 11" "RR 08: 11" "RR" "R"
45332-45494 rtc8564: reg-0x08: "Year: 11" "Y: 11" "Y"
43634-45525 rtc8564: write: "Read date/time: 22.11.11 04:03:54" "Read: 22.11.11 04:03:54" "R: 22.11.11 04:03:54"
46571-46735 rtc8564: reg-write: "Write register 02: 54" "Write reg 02: 54" "WR 02: 54" "WR" "W"
46571-46592 rtc8564: bit-vl: "Voltage low: 0" "Volt. low: 0" "VL: 0" "VL"
46592-46735 rtc8564: reg-0x02: "Second: 54" "Sec: 54" "S: 54" "S"
46754-46918 rtc8564: reg-write: "Write register 03: 03" "Write reg 03: 03" "WR 03: 03" "WR" "W"
46754-46775 rtc8564: bit-reserved: "Reserved bit" "Reserved" "Rsvd" "R"
46775-46918 rtc8564: reg-0x03: "Minute: 3" "Min: 3" "M: 3" "M"
46937-47101 rtc8564: reg-write: "Write register 04: 04" "Write reg 04: 04" "WR 04: 04" "WR" "W"
46937-46958 rtc8564: bit-reserved: "Reserved bit" "Reserved" "Rsvd" "R"
46958-46978 rtc8564: bit-reserved: "Reserved bit" "Reserved" "Rsvd" "R"
46978-47101 rtc8564: reg-0x04: "Hour: 4" "H: 4" "H"
47120-47284 rtc8564: reg-write: "Write register 05: 22" "Write reg 05: 22" "WR 05: 22" "WR" "W"
47120-47141 rtc8564: bit-reserved: "Reserved bit" "Reserved" "Rsvd" "R"
47141-47161 rtc8564: bit-reserved: "Reserved bit" "Reserved" "Rsvd" "R"
47161-47284 rtc8564: reg-0x05: "Day: 22" "D: 22" "D"
47303-47467 rtc8564: reg-write: "Write register 06: 02" "Write reg 06: 02" "WR 06: 02" "WR" "W"
47303-47324 rtc8564: bit-reserved: "Reserved bit" "Reserved" "Rsvd" "R"
47324-47344 rtc8564: bit-reserved: "Reserved bit" "Reserved" "Rsvd" "R"
47344-47364 rtc8564: bit-reserved: "Reserved bit" "Reserved" "Rsvd" "R"
47364-47385 rtc8564: bit-reserved: "Reserved bit" "Reserved" "Rsvd" "R"
47385-47405 rtc8564: bit-reserved: "Reserved bit" "Reserved" "Rsvd" "R"
47405-47467 rtc8564: reg-0x06: "Weekday: 2" "WD: 2" "WD" "W"
47486-47650 rtc8564: reg-write: "Write register 07: 11" "Write reg 07: 11" "WR 07: 11" "WR" "W"
47486-47507 rtc8564: bit-century: "Century bit: 0" "Century: 0" "Cent: 0" "C: 0" "C"
47507-47527 rtc8564: bit-reserved: "Reserved bit" "Reserved" "Rsvd" "R"
47527-47547 rtc8564: bit-reserved: "Reserved bit" "Reserved" "Rsvd" "R"
47547-47650 rtc8564: reg-0x07: "Month: 11" "Mon: 11" "M: 11" "M"
47669-47833 rtc8564: reg-write: "Write register 08: 11" "Write reg 08: 11" "WR 08: 11" "WR" "W"
47669-47833 rtc8564: reg-0x08: "Year: 11" "Y: 11" "Y"
46185-47862 rtc8564: read: "Write date/time: 22.11.11 04:03:54" "Write: 22.11.11 04:03:54" "W: 22.11.11 04:03:54"
49124-49286 rtc8564: reg-write: "Read register 02: 54" "Read reg 02: 54" "RR 02: 54" "RR" "R"
49124-49144 rtc8564: bit-vl: "Voltage low: 0" "Volt. low: 0" "VL: 0" "VL"
49144-49286 rtc8564: reg-0x02: "Second: 54" "Sec: 54" "S: 54" "S"
49307-49469 rtc8564: reg-write: "Read register 03: 03" "Read reg 03: 03" "RR 03: 03" "RR" "R"
49307-49327 rtc8564: bit-reserved: "Reserved bit" "Reserved" "Rsvd" "R"
49327-49469 rtc8564: reg-0x03: "Minute: 3" "Min: 3" "M: 3" "M"
49490-49652 rtc8564: reg-write: "Read register 04: 44" "Read reg 04: 44" "RR 04: 44" "RR" "R"
49490-49510 rtc8564: bit-reserved: "Reserved bit" "Reserved" "Rsvd" "R"
49510-49530 rtc8564: bit-reserved: "Reserved bit" "Reserved" "Rsvd" "R"
49530-49652 rtc8564: reg-0x04: "Hour: 4" "H: 4" "H"
49673-49835 rtc8564: reg-write: "Read register 05: 62" "Read reg 05: 62" "RR 05: 62" "RR" "R"
49673-49693 rtc8564: bit-reserved: "Reserved bit" "Reserved" "Rsvd" "R"
49693-49713 rtc8564: bit-reserved: "Reserved bit" "Reserved" "Rsvd" "R"
49713-49835 rtc8564: reg-0x05: "Day: 22" "D: 22" "D"
49856-50018 rtc8564: reg-write: "Read register 06: 52" "Read reg 06: 52" "RR 06: 52" "RR" "R"
49856-49876 rtc8564: bit-reserved: "Reserved bit" "Reserved" "Rsvd" "R"
49876-49896 rtc8564: bit-reserved: "Reserved bit" "Reserved" "Rsvd" "R"
49896-49917 rtc8564: bit-reserved: "Reserved bit" "Reserved" "Rsvd" "R"
49917-49937 rtc8564: bit-reserved: "Reserved bit" "Reserved" "Rsvd" "R"
49937-49957 rtc8564: bit-reserved: "Reserved bit" "Reserved" "Rsvd" "R"
49957-50018 rtc8564: reg-0x06: "Weekday: 2" "WD: 2" "WD" "W"
50039-50201 rtc8564: reg-write: "Read register 07: 51" "Read reg 07: 51" "RR 07: 51" "RR" "R"
50039-50059 rtc8564: bit-century: "Century bit: 0" "Century: 0" "Cent: 0" "C: 0" "C"
50059-50079 rtc8564: bit-reserved: "Reserved bit" "Reserved" "Rsvd" "R"
50079-50100 rtc8564: bit-reserved: "Reserved bit" "Reserved" "Rsvd" "R"
50100-50201 rtc8564: reg-0x07: "Month: 11" "Mon: 11" "M: 11" "M"
50222-50384 rtc8564: reg-write: "Read register 08: 11" "Read reg 08: 11" "RR 08: 11" "RR" "R"
50222-50384 rtc8564: reg-0x08: "Year: 11" "Y: 11" "Y"
48524-50415 rtc8564: write: "Read date/time: 22.11.11 04:03:54" "Read: 22.11.11 04:03:54" "R: 22.11.11 04:03:54"
51461-51623 rtc8564: reg-write: "Write register 02: 54" "Write reg 02: 54" "WR 02: 54" "WR" "W"
51461-51481 rtc8564: bit-vl: "Voltage low: 0" "Volt. low: 0" "VL: 0" "VL"
51481-51623 rtc8564: reg-0x02: "Second: 54" "Sec: 54" "S: 54" "S"
51644-51806 rtc8564: reg-write: "Write register 03: 03" "Write reg 03: 03" "WR 03: 03" "WR" "W"
51644-51664 rtc8564: bit-reserved: "Reserved bit" "Reserved" "Rsvd" "R"
51664-51806 rtc8564: reg-0x03: "Minute: 3" "Min: 3" "M: 3" "M"
51827-51989 rtc8564: reg-write: "Write register 04: 04" "Write reg 04: 04" "WR 04: 04" "WR" "W"
51827-51847 rtc8564: bit-reserved: "Reserved bit" "Reserved" "Rsvd" "R"
51847-51868 rtc8564: bit-reserved: "Reserved bit" "Reserved" "Rsvd" "R"
51868-51989 rtc8564: reg-0x04: "Hour: 4" "H: 4" "H"
52010-52172 rtc8564: reg-write: "Write register 05: 22" "Write reg 05: 22" "WR 05: 22" "WR" "W"
52010-52030 rtc8564: bit-reserved: "Reserved bit" "Reserved" "Rsvd" "R"
52030-52051 rtc8564: bit-reserved: "Reserved bit" "Reserved" "Rsvd" "R"
52051-52172 rtc8564: reg-0x05: "Day: 22" "D: 22" "D"
52193-52355 rtc8564: reg-write: "Write register 06: 02" "Write reg 06: 02" "WR 06: 02" "WR" "W"
52193-52213 rtc8564: bit-reserved: "Reserved bit" "Reserved" "Rsvd" "R"
52213-52234 rtc8564: bit-reserved: "Reserved bit" "Reserved" "Rsvd" "R"
52234-52254 rtc8564: bit-reserved: "Reserved bit" "Reserved" "Rsvd" "R"
52254-52274 rtc8564: bit-reserved: "Reserved bit" "Reserved" "Rsvd" "R"
52274-52295 rtc8564: bit-reserved: "Reserved bit" "Reserved" "Rsvd" "R"
52295-52355 rtc8564: reg-0x06: "Weekday: 2" "WD: 2" "WD" "W"
52376-52538 rtc8564: reg-write: "Write register 07: 11" "Write reg 07: 11" "WR 07: 11" "WR" "W"
52376-52396 rtc8564: bit-century: "Century bit: 0" "Century: 0" "Cent: 0" "C: 0" "C"
52396-52417 rtc8564: bit-reserved: "Reserved bit" "Reserved" "Rsvd" "R"
52417-52437 rtc8564: bit-reserved: "Reserved bit" "Reserved" "Rsvd" "R"
52437-52538 rtc8564: reg-0x07: "Month: 11" "Mon: 11" "M: 11" "M"
52559-52721 rtc8564: reg-write: "Write register 08: 11" "Write reg 08: 11" "WR 08: 11" "WR" "W"
52559-52721 rtc8564: reg-0x08: "Year: 11" "Y: 11" "Y"
51075-52752 rtc8564: read: "Write date/time: 22.11.11 04:03:54" "Write: 22.11.11 04:03:54" "W: 22.11.11 04:03:54"
54014-54176 rtc8564: reg-write: "Read register 02: 54" "Read reg 02: 54" "RR 02: 54" "RR" "R"
54014-54034 rtc8564: bit-vl: "Voltage low: 0" "Volt. low: 0" "VL: 0" "VL"
54034-54176 rtc8564: reg-0x02: "Second: 54" "Sec: 54" "S: 54" "S"
54197-54359 rtc8564: reg-write: "Read register 03: 03" "Read reg 03: 03" "RR 03: 03" "RR" "R"
54197-54217 rtc8564: bit-reserved: "Reserved bit" "Reserved" "Rsvd" "R"
54217-54359 rtc8564: reg-0x03: "Minute: 3" "Min: 3" "M: 3" "M"
54380-54542 rtc8564: reg-write: "Read register 04: 44" "Read reg 04: 44" "RR 04: 44" "RR" "R"
54380-54400 rtc8564: bit-reserved: "Reserved bit" "Reserved" "Rsvd" "R"
54400-54420 rtc8564: bit-reserved: "Reserved bit" "Reserved" "Rsvd" "R"
54420-54542 rtc8564: reg-0x04: "Hour: 4" "H: 4" "H"
54563-54725 rtc8564: reg-write: "Read register 05: 62" "Read reg 05: 62" "RR 05: 62" "RR" "R"
54563-54583 rtc8564: bit-reserved: "Reserved bit" "Reserved" "Rsvd" "R"
54583-54603 rtc8564: bit-reserved: "Reserved bit" "Reserved" "Rsvd" "R"
54603-54725 rtc8564: reg-0x05: "Day: 22" "D: 22" "D"
54746-54908 rtc8564: reg-write: "Read register 06: 52" "Read reg 06: 52" "RR 06: 52" "RR" "R"
54746-54766 rtc8564: bit-reserved: "Reserved bit" "Reserved" "Rsvd" "R"
54766-54786 rtc8564: bit-reserved: "Reserved bit" "Reserved" "Rsvd" "R"
54786-54807 rtc8564: bit-reserved: "Reserved bit" "Reserved" "Rsvd" "R"
54807-54827 rtc8564: bit-reserved: "Reserved bit" "Reserved" "Rsvd" "R"
54827-54847 rtc8564: bit-reserved: "Reserved bit" "Reserved" "Rsvd" "R"
54847-54908 rtc8564: reg-0x06: "Weekday: 2" "WD: 2" "WD" "W"
54929-55091 rtc8564: reg-write: "Read register 07: 51" "Read reg 07: 51" "RR 07: 51" "RR" "R"
54929-54949 rtc8564: bit-century: "Century bit: 0" "Century: 0" "Cent: 0" "C: 0" "C"
54949-54969 rtc8564: bit-reserved: "Reserved bit" "Reserved" "Rsvd" "R"
54969-54990 rtc8564: bit-reserved: "Reserved bit" "Reserved" "Rsvd" "R"
54990-55091 rtc8564: reg-0x07: "Month: 11" "Mon: 11" "M: 11" "M"
55112-55274 rtc8564: reg-write: "Read register 08: 11" "Read reg 08: 11" "RR 08: 11" "RR" "R"
55112-55274 rtc8564: reg-0x08: "Year: 11" "Y: 11" "Y"
53414-55305 rtc8564: write: "Read date/time: 22.11.11 04:03:54" "Read: 22.11.11 04:03:54" "R: 22.11.11 04:03:54"
56351-56513 rtc8564: reg-write: "Write register 02: 54" "Write reg 02: 54" "WR 02: 54" "WR" "W"
56351-56371 rtc8564: bit-vl: "Voltage low: 0" "Volt. low: 0" "VL: 0" "VL"
56371-56513 rtc8564: reg-0x02: "Second: 54" "Sec: 54" "S: 54" "S"
56534-56696 rtc8564: reg-write: "Write register 03: 03" "Write reg 03: 03" "WR 03: 03" "WR" "W"
56534-56554 rtc8564: bit-reserved: "Reserved bit" "Reserved" "Rsvd" "R"
56554-56696 rtc8564: reg-0x03: "Minute: 3" "Min: 3" "M: 3" "M"
56717-56879 rtc8564: reg-write: "Write register 04: 04" "Write reg 04: 04" "WR 04: 04" "WR" "W"
56717-56737 rtc8564: bit-reserved: "Reserved bit" "Reserved" "Rsvd" "R"
56737-56757 rtc8564: bit-reserved: "Reserved bit" "Reserved" "Rsvd" "R"
56757-56879 rtc8564: reg-0x04: "Hour: 4" "H: 4" "H"
56900-57062 rtc8564: reg-write: "Write register 05: 22" "Write reg 05: 22" "WR 05: 22" "WR" "W"
56900-56920 rtc8564: bit-reserved: "Reserved bit" "Reserved" "Rsvd" "R"
56920-56940 rtc8564: bit-reserved: "Reserved bit" "Reserved" "Rsvd" "R"
56940-57062 rtc8564: reg-0x05: "Day: 22" "D: 22" "D"
57083-57245 rtc8564: reg-write: "Write register 06: 02" "Write reg 06: 02" "WR 06: 02" "WR" "W"
57083-57103 rtc8564: bit-reserved: "Reserved bit" "Reserved" "Rsvd" "R"
57103-57123 rtc8564: bit-reserved: "Reserved bit" "Reserved" "Rsvd" "R"
57123-57144 rtc8564: bit-reserved: "Reserved bit" "Reserved" "Rsvd" "R"
57144-57164 rtc8564: bit-reserved: "Reserved bit" "Reserved" "Rsvd" "R"
57164-57184 rtc8564: bit-reserved: "Reserved bit" "Reserved" "Rsvd" "R"
57184-57245 rtc8564: reg-0x06: "Weekday: 2" "WD: 2" "WD" "W"
57266-57428 rtc8564: reg-write: "Write register 07: 11" "Write reg 07: 11" "WR 07: 11" "WR" "W"
57266-57286 rtc8564: bit-century: "Century bit: 0" "Century: 0" "Cent: 0" "C: 0" "C"
57286-57306 rtc8564: bit-reserved: "Reserved bit" "Reserved" "Rsvd" "R"
57306-57327 rtc8564: bit-reserved: "Reserved bit" "Reserved" "Rsvd" "R"
57327-57428 rtc8564: reg-0x07: "Month: 11" "Mon: 11" "M: 11" "M"
57449-57611 rtc8564: reg-write: "Write register 08: 11" "Write reg 08: 11" "WR 08: 11" "WR" "W"
57449-57611 rtc8564: reg-0x08: "Year: 11" "Y: 11" "Y"
55964-57642 rtc8564: read: "Write date/time: 22.11.11 04:03:54" "Write: 22.11.11 04:03:54" "W: 22.11.11 04:03:54"
58903-59065 rtc8564: reg-write: "Read register 02: 54" "Read reg 02: 54" "RR 02: 54" "RR" "R"
58903-58923 rtc8564: bit-vl: "Voltage low: 0" "Volt. low: 0" "VL: 0" "VL"
58923-59065 rtc8564: reg-0x02: "Second: 54" "Sec: 54" "S: 54" "S"
59086-59248 rtc8564: reg-write: "Read register 03: 03" "Read reg 03: 03" "RR 03: 03" "RR" "R"
59086-59106 rtc8564: bit-reserved: "Reserved bit" "Reserved" "Rsvd" "R"
59106-59248 rtc8564: reg-0x03: "Minute: 3" "Min: 3" "M: 3" "M"
59269-59431 rtc8564: reg-write: "Read register 04: 44" "Read reg 04: 44" "RR 04: 44" "RR" "R"
59269-59289 rtc8564: bit-reserved: "Reserved bit" "Reserved" "Rsvd" "R"
59289-59310 rtc8564: bit-reserved: "Reserved bit" "Reserved" "Rsvd" "R"
59310-59431 rtc8564: reg-0x04: "Hour: 4" "H: 4" "H"
59452-59614 rtc8564: reg-write: "Read register 05: 62" "Read reg 05: 62" "RR 05: 62" "RR" "R"
59452-59472 rtc8564: bit-reserved: "Reserved bit" "Reserved" "Rsvd" "R"
59472-59493 rtc8564: bit-reserved: "Reserved bit" "Reserved" "Rsvd" "R"
59493-59614 rtc8564: reg-0x05: "Day: 22" "D: 22" "D"
59635-59797 rtc8564: reg-write: "Read register 06: 52" "Read reg 06: 52" "RR 06: 52" "RR" "R"
59635-59655 rtc8564: bit-reserved: "Reserved bit" "Reserved" "Rsvd" "R"
59655-59676 rtc8564: bit-reserved: "Reserved bit" "Reserved" "Rsvd" "R"
59676-59696 rtc8564: bit-reserved: "Reserved bit" "Reserved" "Rsvd" "R"
59696-59716 rtc8564: bit-reserved: "Reserved bit" "Reserved" "Rsvd" "R"
59716-59737 rtc8564: bit-reserved: "Reserved bit" "Reserved" "Rsvd" "R"
59737-59797 rtc8564: reg-0x06: "Weekday: 2" "WD: 2" "WD" "W"
59818-59980 rtc8564: reg-write: "Read register 07: 51" "Read reg 07: 51" "RR 07: 51" "RR" "R"
59818-59838 rtc8564: bit-century: "Century bit: 0" "Century: 0" "Cent: 0" "C: 0" "C"
59838-59859 rtc8564: bit-reserved: "Reserved bit" "Reserved" "Rsvd" "R"
59859-59879 rtc8564: bit-reserved: "Reserved bit" "Reserved" "Rsvd" "R"
59879-59980 rtc8564: reg-0x07: "Month: 11" "Mon: 11" "M: 11" "M"
60001-60163 rtc8564: reg-write: "Read register 08: 11" "Read reg 08: 11" "RR 08: 11" "RR" "R"
60001-60163 rtc8564: reg-0x08: "Year: 11" "Y: 11" "Y"
58303-60194 rtc8564: write: "Read date/time: 22.11.11 04:03:54" "Read: 22.11.11 04:03:54" "R: 22.11.11 04:03:54"
61240-61402 rtc8564: reg-write: "Write register 02: 54" "Write reg 02: 54" "WR 02: 54" "WR" "W"
61240-61260 rtc8564: bit-vl: "Voltage low: 0" "Volt. low: 0" "VL: 0" "VL"
61260-61402 rtc8564: reg-0x02: "Second: 54" "Sec: 54" "S: 54" "S"
61423-61585 rtc8564: reg-write: "Write register 03: 03" "Write reg 03: 03" "WR 03: 03" "WR" "W"
61423-61443 rtc8564: bit-reserved: "Reserved bit" "Reserved" "Rsvd" "R"
61443-61585 rtc8564: reg-0x03: "Minute: 3" "Min: 3" "M: 3" "M"
61606-61768 rtc8564: reg-write: "Write register 04: 04" "Write reg 04: 04" "WR 04: 04" "WR" "W"
61606-61626 rtc8564: bit-reserved: "Reserved bit" "Reserved" "Rsvd" "R"
61626-61647 rtc8564: bit-reserved: "Reserved bit" "Reserved" "Rsvd" "R"
61647-61768 rtc8564: reg-0x04: "Hour: 4" "H: 4" "H"
61789-61951 rtc8564: reg-write: "Write register 05: 22" "Write reg 05: 22" "WR 05: 22" "WR" "W"
61789-61809 rtc8564: bit-reserved: "Reserved bit" "Reserved" "Rsvd" "R"
61809-61830 rtc8564: bit-reserved: "Reserved bit" "Reserved" "Rsvd" "R"
61830-61951 rtc8564: reg-0x05: "Day: 22" "D: 22" "D"
61972-62134 rtc8564: reg-write: "Write register 06: 02" "Write reg 06: 02" "WR 06: 02" "WR" "W"
61972-61992 rtc8564: bit-reserved: "Reserved bit" "Reserved" "Rsvd" "R"
61992-62013 rtc8564: bit-reserved: "Reserved bit" "Reserved" "Rsvd" "R"
62013-62033 rtc8564: bit-reserved: "Reserved bit" "Reserved" "Rsvd" "R"
62033-62053 rtc8564: bit-reserved: "Reserved bit" "Reserved" "Rsvd" "R"
62053-62074 rtc8564: bit-reserved: "Reserved bit" "Reserved" "Rsvd" "R"
62074-62134 rtc8564: reg-0x06: "Weekday: 2" "WD: 2" "WD" "W"
62155-62317 rtc8564: reg-write: "Write register 07: 11" "Write reg 07: 11" "WR 07: 11" "WR" "W"
62155-62175 rtc8564: bit-century: "Century bit: 0" "Century: 0" "Cent: 0" "C: 0" "C"
62175-62196 rtc8564: bit-reserved: "Reserved bit" "Reserved" "Rsvd" "R"
62196-62216 rtc8564: bit-reserved: "Reserved bit" "Reserved" "Rsvd" "R"
62216-62317 rtc8564: reg-0x07: "Month: 11" "Mon: 11" "M: 11" "M"
62338-62500 rtc8564: reg-write: "Write register 08: 11" "Write reg 08: 11" "WR 08: 11" "WR" "W"
62338-62500 rtc8564: reg-0x08: "Year: 11" "Y: 11" "Y"
60854-62531 rtc8564: read: "Write date/time: 22.11.11 04:03:54" "Write: 22.11.11 04:03:54" "W: 22.11.11 04:03:54"
63792-63956 rtc8564: reg-write: "Read register 02: 54" "Read reg 02: 54" "RR 02: 54" "RR" "R"
63792-63813 rtc8564: bit-vl: "Voltage low: 0" "Volt. low: 0" "VL: 0" "VL"
63813-63956 rtc8564: reg-0x02: "Second: 54" "Sec: 54" "S: 54" "S"
63975-64139 rtc8564: reg-write: "Read register 03: 03" "Read reg 03: 03" "RR 03: 03" "RR" "R"
63975-63996 rtc8564: bit-reserved: "Reserved bit" "Reserved" "Rsvd" "R"
63996-64139 rtc8564: reg-0x03: "Minute: 3" "Min: 3" "M: 3" "M"
64158-64322 rtc8564: reg-write: "Read register 04: 44" "Read reg 04: 44" "RR 04: 44" "RR" "R"
64158-64179 rtc8564: bit-reserved: "Reserved bit" "Reserved" "Rsvd" "R"
64179-64199 rtc8564: bit-reserved: "Reserved bit" "Reserved" "Rsvd" "R"
64199-64322 rtc8564: reg-0x04: "Hour: 4" "H: 4" "H"
64341-64505 rtc8564: reg-write: "Read register 05: 62" "Read reg 05: 62" "RR 05: 62" "RR" "R"
64341-64362 rtc8564: bit-reserved: "Reserved bit" "Reserved" "Rsvd" "R"
64362-64382 rtc8564: bit-reserved: "Reserved bit" "Reserved" "Rsvd" "R"
64382-64505 rtc8564: reg-0x05: "Day: 22" "D: 22" "D"
64524-64688 rtc8564: reg-write: "Read register 06: 52" "Read reg 06: 52" "RR 06: 52" "RR" "R"
64524-64545 rtc8564: bit-reserved: "Reserved bit" "Reserved" "Rsvd" "R"
64545-64565 rtc8564: bit-reserved: "Reserved bit" "Reserved" "Rsvd" "R"
64565-64585 rtc8564: bit-reserved: "Reserved bit" "Reserved" "Rsvd" "R"
64585-64606 rtc8564: bit-reserved: "Reserved bit" "Reserved" "Rsvd" "R"
64606-64626 rtc8564: bit-reserved: "Reserved bit" "Reserved" "Rsvd" "R"
64626-64688 rtc8564: reg-0x06: "Weekday: 2" "WD: 2" "WD" "W"
64707-64871 rtc8564: reg-write: "Read register 07: 51" "Read reg 07: 51" "RR 07: 51" "RR" "R"
64707-64728 rtc8564: bit-century: "Century bit: 0" "Century: 0" "Cent: 0" "C: 0" "C"
64728-64748 rtc8564: bit-reserved: "Reserved bit" "Reserved" "Rsvd" "R"
64748-64768 rtc8564: bit-reserved: "Reserved bit" "Reserved" "Rsvd" "R"
64768-64871 rtc8564: reg-0x07: "Month: 11" "Mon: 11" "M: 11" "M"
64890-65054 rtc8564: reg-write: "Read register 08: 11" "Read reg 08: 11" "RR 08: 11" "RR" "R"
64890-65054 rtc8564: reg-0x08: "Year: 11" "Y: 11" "Y"
63193-65084 rtc8564: write: "Read date/time: 22.11.11 04:03:54" "Read: 22.11.11 04:03:54" "R: 22.11.11 04:03:54"
66130-66292 rtc8564: reg-write: "Write register 02: 54" "Write reg 02: 54" "WR 02: 54" "WR" "W"
66130-66150 rtc8564: bit-vl: "Voltage low: 0" "Volt. low: 0" "VL: 0" "VL"
66150-66292 rtc8564: reg-0x02: "Second: 54" "Sec: 54" "S: 54" "S"
66313-66475 rtc8564: reg-write: "Write register 03: 03" "Write reg 03: 03" "WR 03: 03" "WR" "W"
66313-66333 rtc8564: bit-reserved: "Reserved bit" "Reserved" "Rsvd" "R"
66333-66475 rtc8564: reg-0x03: "Minute: 3" "Min: 3" "M: 3" "M"
66496-66658 rtc8564: reg-write: "Write register 04: 04" "Write reg 04: 04" "WR 04: 04" "WR" "W"
66496-66516 rtc8564: bit-reserved: "Reserved bit" "Reserved" "Rsvd" "R"
66516-66536 rtc8564: bit-reserved: "Reserved bit" "Reserved" "Rsvd" "R"
66536-66658 rtc8564: reg-0x04: "Hour: 4" "H: 4" "H"
66679-66841 rtc8564: reg-write: "Write register 05: 22" "Write reg 05: 22" "WR 05: 22" "WR" "W"
66679-66699 rtc8564: bit-reserved: "Reserved bit" "Reserved" "Rsvd" "R"
66699-66719 rtc8564: bit-reserved: "Reserved bit" "Reserved" "Rsvd" "R"
66719-66841 rtc8564: reg-0x05: "Day: 22" "D: 22" "D"
66862-67024 rtc8564: reg-write: "Write register 06: 02" "Write reg 06: 02" "WR 06: 02" "WR" "W"
66862-66882 rtc8564: bit-reserved: "Reserved bit" "Reserved" "Rsvd" "R"
66882-66902 rtc8564: bit-reserved: "Reserved bit" "Reserved" "Rsvd" "R"
66902-66923 rtc8564: bit-reserved: "Reserved bit" "Reserved" "Rsvd" "R"
66923-66943 rtc8564: bit-reserved: "Reserved bit" "Reserved" "Rsvd" "R"
66943-66963 rtc8564: bit-reserved: "Reserved bit" "Reserved" "Rsvd" "R"
66963-67024 rtc8564: reg-0x06: "Weekday: 2" "WD: 2" "WD" "W"
67045-67207 rtc8564: reg-write: "Write register 07: 11" "Write reg 07: 11" "WR 07: 11" "WR" "W"
67045-67065 rtc8564: bit-century: "Century bit: 0" "Century: 0" "Cent: 0" "C: 0" "C"
67065-67085 rtc8564: bit-reserved: "Reserved bit" "Reserved" "Rsvd" "R"
67085-67106 rtc8564: bit-reserved: "Reserved bit" "Reserved" "Rsvd" "R"
67106-67207 rtc8564: reg-0x07: "Month: 11" "Mon: 11" "M: 11" "M"
67228-67390 rtc8564: reg-write: "Write register 08: 11" "Write reg 08: 11" "WR 08: 11" "WR" "W"
67228-67390 rtc8564: reg-0x08: "Year: 11" "Y: 11" "Y"
65743-67421 rtc8564: read: "Write date/time: 22.11.11 04:03:54" "Write: 22.11.11 04:03:54" "W: 22.11.11 04:03:54"
68682-68846 rtc8564: reg-write: "Read register 02: 54" "Read reg 02: 54" "RR 02: 54" "RR" "R"
68682-68703 rtc8564: bit-vl: "Voltage low: 0" "Volt. low: 0" "VL: 0" "VL"
68703-68846 rtc8564: reg-0x02: "Second: 54" "Sec: 54" "S: 54" "S"
68865-69029 rtc8564: reg-write: "Read register 03: 03" "Read reg 03: 03" "RR 03: 03" "RR" "R"
68865-68886 rtc8564: bit-reserved: "Reserved bit" "Reserved" "Rsvd" "R"
68886-69029 rtc8564: reg-0x03: "Minute: 3" "Min: 3" "M: 3" "M"
69048-69212 rtc8564: reg-write: "Read register 04: 44" "Read reg 04: 44" "RR 04: 44" "RR" "R"
69048-69069 rtc8564: bit-reserved: "Reserved bit" "Reserved" "Rsvd" "R"
69069-69089 rtc8564: bit-reserved: "Reserved bit" "Reserved" "Rsvd" "R"
69089-69212 rtc8564: reg-0x04: "Hour: 4" "H: 4" "H"
69231-69395 rtc8564: reg-write: "Read register 05: 62" "Read reg 05: 62" "RR 05: 62" "RR" "R"
69231-69252 rtc8564: bit-reserved: "Reserved bit" "Reserved" "Rsvd" "R"
69252-69272 rtc8564: bit-reserved: "Reserved bit" "Reserved" "Rsvd" "R"
69272-69395 rtc8564: reg-0x05: "Day: 22" "D: 22" "D"
69414-69578 rtc8564: reg-write: "Read register 06: 52" "Read reg 06: 52" "RR 06: 52" "RR" "R"
69414-69435 rtc8564: bit-reserved: "Reserved bit" "Reserved" "Rsvd" "R"
69435-69455 rtc8564: bit-reserved: "Reserved bit" "Reserved" "Rsvd" "R"
69455-69475 rtc8564: bit-reserved: "Reserved bit" "Reserved" "Rsvd" "R"
69475-69496 rtc8564: bit-reserved: "Reserved bit" "Reserved" "Rsvd" "R"
69496-69516 rtc8564: bit-reserved: "Reserved bit" "Reserved" "Rsvd" "R"
69516-69578 rtc8564: reg-0x06: "Weekday: 2" "WD: 2" "WD" "W"
69597-69761 rtc8564: reg-write: "Read register 07: 51" "Read reg 07: 51" "RR 07: 51" "RR" "R"
69597-69618 rtc8564: bit-century: "Century bit: 0" "Century: 0" "Cent: 0" "C: 0" "C"
69618-69638 rtc8564: bit-reserved: "Reserved bit" "Reserved" "Rsvd" "R"
69638-69658 rtc8564: bit-reserved: "Reserved bit" "Reserved" "Rsvd" "R"
69658-69761 rtc8564: reg-0x07: "Month: 11" "Mon: 11" "M: 11" "M"
69780-69944 rtc8564: reg-write: "Read register 08: 11" "Read reg 08: 11" "RR 08: 11" "RR" "R"
69780-69944 rtc8564: reg-0x08: "Year: 11" "Y: 11" "Y"
68082-69973 rtc8564: write: "Read date/time: 22.11.11 04:03:54" "Read: 22.11.11 04:03:54" "R: 22.11.11 04:03:54"
71020-71182 rtc8564: reg-write: "Write register 02: 54" "Write reg 02: 54" "WR 02: 54" "WR" "W"
71020-71040 rtc8564: bit-vl: "Voltage low: 0" "Volt. low: 0" "VL: 0" "VL"
71040-71182 rtc8564: reg-0x02: "Second: 54" "Sec: 54" "S: 54" "S"
71203-71365 rtc8564: reg-write: "Write register 03: 03" "Write reg 03: 03" "WR 03: 03" "WR" "W"
71203-71223 rtc8564: bit-reserved: "Reserved bit" "Reserved" "Rsvd" "R"
71223-71365 rtc8564: reg-0x03: "Minute: 3" "Min: 3" "M: 3" "M"
71386-71548 rtc8564: reg-write: "Write register 04: 04" "Write reg 04: 04" "WR 04: 04" "WR" "W"
71386-71406 rtc8564: bit-reserved: "Reserved bit" "Reserved" "Rsvd" "R"
71406-71427 rtc8564: bit-reserved: "Reserved bit" "Reserved" "Rsvd" "R"
71427-71548 rtc8564: reg-0x04: "Hour: 4" "H: 4" "H"
71569-71731 rtc8564: reg-write: "Write register 05: 22" "Write reg 05: 22" "WR 05: 22" "WR" "W"
71569-71589 rtc8564: bit-reserved: "Reserved bit" "Reserved" "Rsvd" "R"
71589-71610 rtc8564: bit-reserved: "Reserved bit" "Reserved" "Rsvd" "R"
71610-71731 rtc8564: reg-0x05: "Day: 22" "D: 22" "D"
71752-71914 rtc8564: reg-write: "Write register 06: 02" "Write reg 06: 02" "WR 06: 02" "WR" "W"
71752-71772 rtc8564: bit-reserved: "Reserved bit" "Reserved" "Rsvd" "R"
71772-71793 rtc8564: bit-reserved: "Reserved bit" "Reserved" "Rsvd" "R"
71793-71813 rtc8564: bit-reserved: "Reserved bit" "Reserved" "Rsvd" "R"
71813-71833 rtc8564: bit-reserved: "Reserved bit" "Reserved" "Rsvd" "R"
71833-71854 rtc8564: bit-reserved: "Reserved bit" "Reserved" "Rsvd" "R"
71854-71914 rtc8564: reg-0x06: "Weekday: 2" "WD: 2" "WD" "W"
71935-72097 rtc8564: reg-write: "Write register 07: 11" "Write reg 07: 11" "WR 07: 11" "WR" "W"
71935-71955 rtc8564: bit-century: "Century bit: 0" "Century: 0" "Cent: 0" "C: 0" "C"
71955-71976 rtc8564: bit-reserved: "Reserved bit" "Reserved" "Rsvd" "R"
71976-71996 rtc8564: bit-reserved: "Reserved bit" "Reserved" "Rsvd" "R"
71996-72097 rtc8564: reg-0x07: "Month: 11" "Mon: 11" "M: 11" "M"
72118-72280 rtc8564: reg-write: "Write register 08: 11" "Write reg 08: 11" "WR 08: 11" "WR" "W"
72118-72280 rtc8564: reg-0x08: "Year: 11" "Y: 11" "Y"
70634-72311 rtc8564: read: "Write date/time: 22.11.11 04:03:54" "Write: 22.11.11 04:03:54" "W: 22.11.11 04:03:54"
73572-73734 rtc8564: reg-write: "Read register 02: 54" "Read reg 02: 54" "RR 02: 54" "RR" "R"
73572-73592 rtc8564: bit-vl: "Voltage low: 0" "Volt. low: 0" "VL: 0" "VL"
73592-73734 rtc8564: reg-0x02: "Second: 54" "Sec: 54" "S: 54" "S"
73755-73917 rtc8564: reg-write: "Read register 03: 03" "Read reg 03: 03" "RR 03: 03" "RR" "R"
73755-73775 rtc8564: bit-reserved: "Reserved bit" "Reserved" "Rsvd" "R"
73775-73917 rtc8564: reg-0x03: "Minute: 3" "Min: 3" "M: 3" "M"
73938-74100 rtc8564: reg-write: "Read register 04: 44" "Read reg 04: 44" "RR 04: 44" "RR" "R"
73938-73958 rtc8564: bit-reserved: "Reserved bit" "Reserved" "Rsvd" "R"
73958-73978 rtc8564: bit-reserved: "Reserved bit" "Reserved" "Rsvd" "R"
73978-74100 rtc8564: reg-0x04: "Hour: 4" "H: 4" "H"
74121-74283 rtc8564: reg-write: "Read register 05: 62" "Read reg 05: 62" "RR 05: 62" "RR" "R"
74121-74141 rtc8564: bit-reserved: "Reserved bit" "Reserved" "Rsvd" "R"
74141-74161 rtc8564: bit-reserved: "Reserved bit" "Reserved" "Rsvd" "R"
74161-74283 rtc8564: reg-0x05: "Day: 22" "D: 22" "D"
74304-74466 rtc8564: reg-write: "Read register 06: 52" "Read reg 06: 52" "RR 06: 52" "RR" "R"
74304-74324 rtc8564: bit-reserved: "Reserved bit" "Reserved" "Rsvd" "R"
74324-74344 rtc8564: bit-reserved: "Reserved bit" "Reserved" "Rsvd" "R"
74344-74365 rtc8564: bit-reserved: "Reserved bit" "Reserved" "Rsvd" "R"
74365-74385 rtc8564: bit-reserved: "Reserved bit" "Reserved" "Rsvd" "R"
74385-74405 rtc8564: bit-reserved: "Reserved bit" "Reserved" "Rsvd" "R"
74405-74466 rtc8564: reg-0x06: "Weekday: 2" "WD: 2" "WD" "W"
74487-74649 rtc8564: reg-write: "Read register 07: 51" "Read reg 07: 51" "RR 07: 51" "RR" "R"
74487-74507 rtc8564: bit-century: "Century bit: 0" "Century: 0" "Cent: 0" "C: 0" "C"
74507-74527 rtc8564: bit-reserved: "Reserved bit" "Reserved" "Rsvd" "R"
74527-74548 rtc8564: bit-reserved: "Reserved bit" "Reserved" "Rsvd" "R"
74548-74649 rtc8564: reg-0x07: "Month: 11" "Mon: 11" "M: 11" "M"
74670-74832 rtc8564: reg-write: "Read register 08: 11" "Read reg 08: 11" "RR 08: 11" "RR" "R"
74670-74832 rtc8564: reg-0x08: "Year: 11" "Y: 11" "Y"
72972-74863 rtc8564: write: "Read date/time: 22.11.11 04:03:54" "Read: 22.11.11 04:03:54" "R: 22.11.11 04:03:54"
75909-76071 rtc8564: reg-write: "Write register 02: 54" "Write reg 02: 54" "WR 02: 54" "WR" "W"
75909-75929 rtc8564: bit-vl: "Voltage low: 0" "Volt. low: 0" "VL: 0" "VL"
75929-76071 rtc8564: reg-0x02: "Second: 54" "Sec: 54" "S: 54" "S"
76092-76254 rtc8564: reg-write: "Write register 03: 03" "Write reg 03: 03" "WR 03: 03" "WR" "W"
76092-76112 rtc8564: bit-reserved: "Reserved bit" "Reserved" "Rsvd" "R"
76112-76254 rtc8564: reg-0x03: "Minute: 3" "Min: 3" "M: 3" "M"
76275-76437 rtc8564: reg-write: "Write register 04: 04" "Write reg 04: 04" "WR 04: 04" "WR" "W"
76275-76295 rtc8564: bit-reserved: "Reserved bit" "Reserved" "Rsvd" "R"
76295-76315 rtc8564: bit-reserved: "Reserved bit" "Reserved" "Rsvd" "R"
76315-76437 rtc8564: reg-0x04: "Hour: 4" "H: 4" "H"
76458-76620 rtc8564: reg-write: "Write register 05: 22" "Write reg 05: 22" "WR 05: 22" "WR" "W"
76458-76478 rtc8564: bit-reserved: "Reserved bit" "Reserved" "Rsvd" "R"
76478-76498 rtc8564: bit-reserved: "Reserved bit" "Reserved" "Rsvd" "R"
76498-76620 rtc8564: reg-0x05: "Day: 22" "D: 22" "D"
76641-76803 rtc8564: reg-write: "Write register 06: 02" "Write reg 06: 02" "WR 06: 02" "WR" "W"
76641-76661 rtc8564: bit-reserved: "Reserved bit" "Reserved" "Rsvd" "R"
76661-76681 rtc8564: bit-reserved: "Reserved bit" "Reserved" "Rsvd" "R"
76681-76702 rtc8564: bit-reserved: "Reserved bit" "Reserved" "Rsvd" "R"
76702-76722 rtc8564: bit-reserved: "Reserved bit" "Reserved" "Rsvd" "R"
76722-76742 rtc8564: bit-reserved: "Reserved bit" "Reserved" "Rsvd" "R"
76742-76803 rtc8564: reg-0x06: "Weekday: 2" "WD: 2" "WD" "W"
76824-76986 rtc8564: reg-write: "Write register 07: 11" "Write reg 07: 11" "WR 07: 11" "WR" "W"
76824-76844 rtc8564: bit-century: "Century bit: 0" "Century: 0" "Cent: 0" "C: 0" "C"
76844-76864 rtc8564: bit-reserved: "Reserved bit" "Reserved" "Rsvd" "R"
76864-76885 rtc8564: bit-reserved: "Reserved bit" "Reserved" "Rsvd" "R"
76885-76986 rtc8564: reg-0x07: "Month: 11" "Mon: 11" "M: 11" "M"
77007-77169 rtc8564: reg-write: "Write register 08: 11" "Write reg 08: 11" "WR 08: 11" "WR" "W"
77007-77169 rtc8564: reg-0x08: "Year: 11" "Y: 11" "Y"
75522-77200 rtc8564: read: "Write date/time: 22.11.11 04:03:54" "Write: 22.11.11 04:03:54" "W: 22.11.11 04:03:54"
78477-78639 rtc8564: reg-write: "Read register 02: 54" "Read reg 02: 54" "RR 02: 54" "RR" "R"
78477-78497 rtc8564: bit-vl: "Voltage low: 0" "Volt. low: 0" "VL: 0" "VL"
78497-78639 rtc8564: reg-0x02: "Second: 54" "Sec: 54" "S: 54" "S"
78660-78822 rtc8564: reg-write: "Read register 03: 03" "Read reg 03: 03" "RR 03: 03" "RR" "R"
78660-78680 rtc8564: bit-reserved: "Reserved bit" "Reserved" "Rsvd" "R"
78680-78822 rtc8564: reg-0x03: "Minute: 3" "Min: 3" "M: 3" "M"
78843-79005 rtc8564: reg-write: "Read register 04: 44" "Read reg 04: 44" "RR 04: 44" "RR" "R"
78843-78863 rtc8564: bit-reserved: "Reserved bit" "Reserved" "Rsvd" "R"
78863-78884 rtc8564: bit-reserved: "Reserved bit" "Reserved" "Rsvd" "R"
78884-79005 rtc8564: reg-0x04: "Hour: 4" "H: 4" "H"
79026-79188 rtc8564: reg-write: "Read register 05: 62" "Read reg 05: 62" "RR 05: 62" "RR" "R"
79026-79046 rtc8564: bit-reserved: "Reserved bit" "Reserved" "Rsvd" "R"
79046-79067 rtc8564: bit-reserved: "Reserved bit" "Reserved" "Rsvd" "R"
79067-79188 rtc8564: reg-0x05: "Day: 22" "D: 22" "D"
79209-79371 rtc8564: reg-write: "Read register 06: 52" "Read reg 06: 52" "RR 06: 52" "RR" "R"
79209-79229 rtc8564: bit-reserved: "Reserved bit" "Reserved" "Rsvd" "R"
79229-79250 rtc8564: bit-reserved: "Reserved bit" "Reserved" "Rsvd" "R"
79250-79270 rtc8564: bit-reserved: "Reserved bit" "Reserved" "Rsvd" "R"
79270-79290 rtc8564: bit-reserved: "Reserved bit" "Reserved" "Rsvd" "R"
79290-79311 rtc8564: bit-reserved: "Reserved bit" "Reserved" "Rsvd" "R"
79311-79371 rtc8564: reg-0x06: "Weekday: 2" "WD: 2" "WD" "W"
79392-79554 rtc8564: reg-write: "Read register 07: 51" "Read reg 07: 51" "RR 07: 51" "RR" "R"
79392-79412 rtc8564: bit-century: "Century bit: 0" "Century: 0" "Cent: 0" "C: 0" "C"
79412-79433 rtc8564: bit-reserved: "Reserved bit" "Reserved" "Rsvd" "R"
79433-79453 rtc8564: bit-reserved: "Reserved bit" "Reserved" "Rsvd" "R"
79453-79554 rtc8564: reg-0x07: "Month: 11" "Mon: 11" "M: 11" "M"
79575-79737 rtc8564: reg-write: "Read register 08: 11" "Read reg 08: 11" "RR 08: 11" "RR" "R"
79575-79737 rtc8564: reg-0x08: "Year: 11" "Y: 11" "Y"
77877-79768 rtc8564: write: "Read date/time: 22.11.11 04:03:54" "Read: 22.11.11 04:03:54" "R: 22.11.11 04:03:54"
80815-80977 rtc8564: reg-write: "Write register 02: 54" "Write reg 02: 54" "WR 02: 54" "WR" "W"
80815-80835 rtc8564: bit-vl: "Voltage low: 0" "Volt. low: 0" "VL: 0" "VL"
80835-80977 rtc8564: reg-0x02: "Second: 54" "Sec: 54" "S: 54" "S"
80998-81160 rtc8564: reg-write: "Write register 03: 03" "Write reg 03: 03" "WR 03: 03" "WR" "W"
80998-81018 rtc8564: bit-reserved: "Reserved bit" "Reserved" "Rsvd" "R"
81018-81160 rtc8564: reg-0x03: "Minute: 3" "Min: 3" "M: 3" "M"
81181-81343 rtc8564: reg-write: "Write register 04: 04" "Write reg 04: 04" "WR 04: 04" "WR" "W"
81181-81201 rtc8564: bit-reserved: "Reserved bit" "Reserved" "Rsvd" "R"
81201-81221 rtc8564: bit-reserved: "Reserved bit" "Reserved" "Rsvd" "R"
81221-81343 rtc8564: reg-0x04: "Hour: 4" "H: 4" "H"
81364-81526 rtc8564: reg-write: "Write register 05: 22" "Write reg 05: 22" "WR 05: 22" "WR" "W"
81364-81384 rtc8564: bit-reserved: "Reserved bit" "Reserved" "Rsvd" "R"
81384-81404 rtc8564: bit-reserved: "Reserved bit" "Reserved" "Rsvd" "R"
81404-81526 rtc8564: reg-0x05: "Day: 22" "D: 22" "D"
81547-81709 rtc8564: reg-write: "Write register 06: 02" "Write reg 06: 02" "WR 06: 02" "WR" "W"
81547-81567 rtc8564: bit-reserved: "Reserved bit" "Reserved" "Rsvd" "R"
81567-81587 rtc8564: bit-reserved: "Reserved bit" "Reserved" "Rsvd" "R"
81587-81608 rtc8564: bit-reserved: "Reserved bit" "Reserved" "Rsvd" "R"
81608-81628 rtc8564: bit-reserved: "Reserved bit" "Reserved" "Rsvd" "R"
81628-81648 rtc8564: bit-reserved: "Reserved bit" "Reserved" "Rsvd" "R"
81648-81709 rtc8564: reg-0x06: "Weekday: 2" "WD: 2" "WD" "W"
81730-81892 rtc8564: reg-write: "Write register 07: 11" "Write reg 07: 11" "WR 07: 11" "WR" "W"
81730-81750 rtc8564: bit-century: "Century bit: 0" "Century: 0" "Cent: 0" "C: 0" "C"
81750-81770 rtc8564: bit-reserved: "Reserved bit" "Reserved" "Rsvd" "R"
81770-81791 rtc8564: bit-reserved: "Reserved bit" "Reserved" "Rsvd" "R"
81791-81892 rtc8564: reg-0x07: "Month: 11" "Mon: 11" "M: 11" "M"
81913-82075 rtc8564: reg-write: "Write register 08: 11" "Write reg 08: 11" "WR 08: 11" "WR" "W"
81913-82075 rtc8564: reg-0x08: "Year: 11" "Y: 11" "Y"
80428-82106 rtc8564: read: "Write date/time: 22.11.11 04:03:54" "Write: 22.11.11 04:03:54" "W: 22.11.11 04:03:54"
83383-83547 rtc8564: reg-write: "Read register 02: 54" "Read reg 02: 54" "RR 02: 54" "RR" "R"
83383-83403 rtc8564: bit-vl: "Voltage low: 0" "Volt. low: 0" "VL: 0" "VL"
83403-83547 rtc8564: reg-0x02: "Second: 54" "Sec: 54" "S: 54" "S"
83566-83728 rtc8564: reg-write: "Read register 03: 03" "Read reg 03: 03" "RR 03: 03" "RR" "R"
83566-83587 rtc8564: bit-reserved: "Reserved bit" "Reserved" "Rsvd" "R"
83587-83728 rtc8564: reg-0x03: "Minute: 3" "Min: 3" "M: 3" "M"
83749-83913 rtc8564: reg-write: "Read register 04: 44" "Read reg 04: 44" "RR 04: 44" "RR" "R"
83749-83769 rtc8564: bit-reserved: "Reserved bit" "Reserved" "Rsvd" "R"
83769-83790 rtc8564: bit-reserved: "Reserved bit" "Reserved" "Rsvd" "R"
83790-83913 rtc8564: reg-0x04: "Hour: 4" "H: 4" "H"
83932-84096 rtc8564: reg-write: "Read register 05: 62" "Read reg 05: 62" "RR 05: 62" "RR" "R"
83932-83952 rtc8564: bit-reserved: "Reserved bit" "Reserved" "Rsvd" "R"
83952-83973 rtc8564: bit-reserved: "Reserved bit" "Reserved" "Rsvd" "R"
83973-84096 rtc8564: reg-0x05: "Day: 22" "D: 22" "D"
84115-84279 rtc8564: reg-write: "Read register 06: 52" "Read reg 06: 52" "RR 06: 52" "RR" "R"
84115-84135 rtc8564: bit-reserved: "Reserved bit" "Reserved" "Rsvd" "R"
84135-84156 rtc8564: bit-reserved: "Reserved bit" "Reserved" "Rsvd" "R"
84156-84176 rtc8564: bit-reserved: "Reserved bit" "Reserved" "Rsvd" "R"
84176-84197 rtc8564: bit-reserved: "Reserved bit" "Reserved" "Rsvd" "R"
84197-84217 rtc8564: bit-reserved: "Reserved bit" "Reserved" "Rsvd" "R"
84217-84279 rtc8564: reg-0x06: "Weekday: 2" "WD: 2" "WD" "W"
84298-84462 rtc8564: reg-write: "Read register 07: 51" "Read reg 07: 51" "RR 07: 51" "RR" "R"
84298-84319 rtc8564: bit-century: "Century bit: 0" "Century: 0" "Cent: 0" "C: 0" "C"
84319-84339 rtc8564: bit-reserved: "Reserved bit" "Reserved" "Rsvd" "R"
84339-84359 rtc8564: bit-reserved: "Reserved bit" "Reserved" "Rsvd" "R"
84359-84462 rtc8564: reg-0x07: "Month: 11" "Mon: 11" "M: 11" "M"
84481-84645 rtc8564: reg-write: "Read register 08: 11" "Read reg 08: 11" "RR 08: 11" "RR" "R"
84481-84645 rtc8564: reg-0x08: "Year: 11" "Y: 11" "Y"
82783-84674 rtc8564: write: "Read date/time: 22.11.11 04:03:54" "Read: 22.11.11 04:03:54" "R: 22.11.11 04:03:54"
85721-85883 rtc8564: reg-write: "Write register 02: 54" "Write reg 02: 54" "WR 02: 54" "WR" "W"
85721-85741 rtc8564: bit-vl: "Voltage low: 0" "Volt. low: 0" "VL: 0" "VL"
85741-85883 rtc8564: reg-0x02: "Second: 54" "Sec: 54" "S: 54" "S"
85904-86066 rtc8564: reg-write: "Write register 03: 03" "Write reg 03: 03" "WR 03: 03" "WR" "W"
85904-85924 rtc8564: bit-reserved: "Reserved bit" "Reserved" "Rsvd" "R"
85924-86066 rtc8564: reg-0x03: "Minute: 3" "Min: 3" "M: 3" "M"
86087-86249 rtc8564: reg-write: "Write register 04: 04" "Write reg 04: 04" "WR 04: 04" "WR" "W"
86087-86107 rtc8564: bit-reserved: "Reserved bit" "Reserved" "Rsvd" "R"
86107-86128 rtc8564: bit-reserved: "Reserved bit" "Reserved" "Rsvd" "R"
86128-86249 rtc8564: reg-0x04: "Hour: 4" "H: 4" "H"
86270-86432 rtc8564: reg-write: "Write register 05: 22" "Write reg 05: 22" "WR 05: 22" "WR" "W"
86270-86290 rtc8564: bit-reserved: "Reserved bit" "Reserved" "Rsvd" "R"
86290-86311 rtc8564: bit-reserved: "Reserved bit" "Reserved" "Rsvd" "R"
86311-86432 rtc8564: reg-0x05: "Day: 22" "D: 22" "D"
86453-86615 rtc8564: reg-write: "Write register 06: 02" "Write reg 06: 02" "WR 06: 02" "WR" "W"
86453-86473 rtc8564: bit-reserved: "Reserved bit" "Reserved" "Rsvd" "R"
86473-86494 rtc8564: bit-reserved: "Reserved bit" "Reserved" "Rsvd" "R"
86494-86514 rtc8564: bit-reserved: "Reserved bit" "Reserved" "Rsvd" "R"
86514-86534 rtc8564: bit-reserved: "Reserved bit" "Reserved" "Rsvd" "R"
86534-86555 rtc8564: bit-reserved: "Reserved bit" "Reserved" "Rsvd" "R"
86555-86615 rtc8564: reg-0x06: "Weekday: 2" "WD: 2" "WD" "W"
86636-86798 rtc8564: reg-write: "Write register 07: 11" "Write reg 07: 11" "WR 07: 11" "WR" "W"
86636-86656 rtc8564: bit-century: "Century bit: 0" "Century: 0" "Cent: 0" "C: 0" "C"
86656-86677 rtc8564: bit-reserved: "Reserved bit" "Reserved" "Rsvd" "R"
86677-86697 rtc8564: bit-reserved: "Reserved bit" "Reserved" "Rsvd" "R"
86697-86798 rtc8564: reg-0x07: "Month: 11" "Mon: 11" "M: 11" "M"
86819-86981 rtc8564: reg-write: "Write register 08: 11" "Write reg 08: 11" "WR 08: 11" "WR" "W"
86819-86981 rtc8564: reg-0x08: "Year: 11" "Y: 11" "Y"
85335-87012 rtc8564: read: "Write date/time: 22.11.11 04:03:54" "Write: 22.11.11 04:03:54" "W: 22.11.11 04:03:54"
88289-88453 rtc8564: reg-write: "Read register 02: 54" "Read reg 02: 54" "RR 02: 54" "RR" "R"
88289-88310 rtc8564: bit-vl: "Voltage low: 0" "Volt. low: 0" "VL: 0" "VL"
88310-88453 rtc8564: reg-0x02: "Second: 54" "Sec: 54" "S: 54" "S"
88472-88636 rtc8564: reg-write: "Read register 03: 03" "Read reg 03: 03" "RR 03: 03" "RR" "R"
88472-88493 rtc8564: bit-reserved: "Reserved bit" "Reserved" "Rsvd" "R"
88493-88636 rtc8564: reg-0x03: "Minute: 3" "Min: 3" "M: 3" "M"
88655-88819 rtc8564: reg-write: "Read register 04: 44" "Read reg 04: 44" "RR 04: 44" "RR" "R"
88655-88676 rtc8564: bit-reserved: "Reserved bit" "Reserved" "Rsvd" "R"
88676-88696 rtc8564: bit-reserved: "Reserved bit" "Reserved" "Rsvd" "R"
88696-88819 rtc8564: reg-0x04: "Hour: 4" "H: 4" "H"
88838-89002 rtc8564: reg-write: "Read register 05: 62" "Read reg 05: 62" "RR 05: 62" "RR" "R"
88838-88859 rtc8564: bit-reserved: "Reserved bit" "Reserved" "Rsvd" "R"
88859-88879 rtc8564: bit-reserved: "Reserved bit" "Reserved" "Rsvd" "R"
88879-89002 rtc8564: reg-0x05: "Day: 22" "D: 22" "D"
89021-89185 rtc8564: reg-write: "Read register 06: 52" "Read reg 06: 52" "RR 06: 52" "RR" "R"
89021-89042 rtc8564: bit-reserved: "Reserved bit" "Reserved" "Rsvd" "R"
89042-89062 rtc8564: bit-reserved: "Reserved bit" "Reserved" "Rsvd" "R"
89062-89082 rtc8564: bit-reserved: "Reserved bit" "Reserved" "Rsvd" "R"
89082-89103 rtc8564: bit-reserved: "Reserved bit" "Reserved" "Rsvd" "R"
89103-89123 rtc8564: bit-reserved: "Reserved bit" "Reserved" "Rsvd" "R"
89123-89185 rtc8564: reg-0x06: "Weekday: 2" "WD: 2" "WD" "W"
89204-89368 rtc8564: reg-write: "Read register 07: 51" "Read reg 07: 51" "RR 07: 51" "RR" "R"
89204-89225 rtc8564: bit-century: "Century bit: 0" "Century: 0" "Cent: 0" "C: 0" "C"
89225-89245 rtc8564: bit-reserved: "Reserved bit" "Reserved" "Rsvd" "R"
89245-89265 rtc8564: bit-reserved: "Reserved bit" "Reserved" "Rsvd" "R"
89265-89368 rtc8564: reg-0x07: "Month: 11" "Mon: 11" "M: 11" "M"
89387-89551 rtc8564: reg-write: "Read register 08: 11" "Read reg 08: 11" "RR 08: 11" "RR" "R"
89387-89551 rtc8564: reg-0x08: "Year: 11" "Y: 11" "Y"
87690-89581 rtc8564: write: "Read date/time: 22.11.11 04:03:54" "Read: 22.11.11 04:03:54" "R: 22.11.11 04:03:54"
90627-90789 rtc8564: reg-write: "Write register 02: 54" "Write reg 02: 54" "WR 02: 54" "WR" "W"
90627-90647 rtc8564: bit-vl: "Voltage low: 0" "Volt. low: 0" "VL: 0" "VL"
90647-90789 rtc8564: reg-0x02: "Second: 54" "Sec: 54" "S: 54" "S"
90810-90972 rtc8564: reg-write: "Write register 03: 03" "Write reg 03: 03" "WR 03: 03" "WR" "W"
90810-90830 rtc8564: bit-reserved: "Reserved bit" "Reserved" "Rsvd" "R"
90830-90972 rtc8564: reg-0x03: "Minute: 3" "Min: 3" "M: 3" "M"
90993-91155 rtc8564: reg-write: "Write register 04: 04" "Write reg 04: 04" "WR 04: 04" "WR" "W"
90993-91013 rtc8564: bit-reserved: "Reserved bit" "Reserved" "Rsvd" "R"
91013-91034 rtc8564: bit-reserved: "Reserved bit" "Reserved" "Rsvd" "R"
91034-91155 rtc8564: reg-0x04: "Hour: 4" "H: 4" "H"
91176-91338 rtc8564: reg-write: "Write register 05: 22" "Write reg 05: 22" "WR 05: 22" "WR" "W"
91176-91196 rtc8564: bit-reserved: "Reserved bit" "Reserved" "Rsvd" "R"
91196-91217 rtc8564: bit-reserved: "Reserved bit" "Reserved" "Rsvd" "R"
91217-91338 rtc8564: reg-0x05: "Day: 22" "D: 22" "D"
91359-91521 rtc8564: reg-write: "Write register 06: 02" "Write reg 06: 02" "WR 06: 02" "WR" "W"
91359-91379 rtc8564: bit-reserved: "Reserved bit" "Reserved" "Rsvd" "R"
91379-91400 rtc8564: bit-reserved: "Reserved bit" "Reserved" "Rsvd" "R"
91400-91420 rtc8564: bit-reserved: "Reserved bit" "Reserved" "Rsvd" "R"
91420-91440 rtc8564: bit-reserved: "Reserved bit" "Reserved" "Rsvd" "R"
91440-91461 rtc8564: bit-reserved: "Reserved bit" "Reserved" "Rsvd" "R"
91461-91521 rtc8564: reg-0x06: "Weekday: 2" "WD: 2" "WD" "W"
91542-91704 rtc8564: reg-write: "Write register 07: 11" "Write reg 07: 11" "WR 07: 11" "WR" "W"
91542-91562 rtc8564: bit-century: "Century bit: 0" "Century: 0" "Cent: 0" "C: 0" "C"
91562-91583 rtc8564: bit-reserved: "Reserved bit" "Reserved" "Rsvd" "R"
91583-91603 rtc8564: bit-reserved: "Reserved bit" "Reserved" "Rsvd" "R"
91603-91704 rtc8564: reg-0x07: "Month: 11" "Mon: 11" "M: 11" "M"
91725-91887 rtc8564: reg-write: "Write register 08: 11" "Write reg 08: 11" "WR 08: 11" "WR" "W"
91725-91887 rtc8564: reg-0x08: "Year: 11" "Y: 11" "Y"
90241-91918 rtc8564: read: "Write date/time: 22.11.11 04:03:54" "Write: 22.11.11 04:03:54" "W: 22.11.11 04:03:54"
93179-93343 rtc8564: reg-write: "Read register 02: 54" "Read reg 02: 54" "RR 02: 54" "RR" "R"
93179-93200 rtc8564: bit-vl: "Voltage low: 0" "Volt. low: 0" "VL: 0" "VL"
93200-93343 rtc8564: reg-0x02: "Second: 54" "Sec: 54" "S: 54" "S"
93362-93526 rtc8564: reg-write: "Read register 03: 03" "Read reg 03: 03" "RR 03: 03" "RR" "R"
93362-93383 rtc8564: bit-reserved: "Reserved bit" "Reserved" "Rsvd" "R"
93383-93526 rtc8564: reg-0x03: "Minute: 3" "Min: 3" "M: 3" "M"
93545-93709 rtc8564: reg-write: "Read register 04: 44" "Read reg 04: 44" "RR 04: 44" "RR" "R"
93545-93566 rtc8564: bit-reserved: "Reserved bit" "Reserved" "Rsvd" "R"
93566-93586 rtc8564: bit-reserved: "Reserved bit" "Reserved" "Rsvd" "R"
93586-93709 rtc8564: reg-0x04: "Hour: 4" "H: 4" "H"
93728-93892 rtc8564: reg-write: "Read register 05: 62" "Read reg 05: 62" "RR 05: 62" "RR" "R"
93728-93749 rtc8564: bit-reserved: "Reserved bit" "Reserved" "Rsvd" "R"
93749-93769 rtc8564: bit-reserved: "Reserved bit" "Reserved" "Rsvd" "R"
93769-93892 rtc8564: reg-0x05: "Day: 22" "D: 22" "D"
93911-94075 rtc8564: reg-write: "Read register 06: 52" "Read reg 06: 52" "RR 06: 52" "RR" "R"
93911-93932 rtc8564: bit-reserved: "Reserved bit" "Reserved" "Rsvd" "R"
93932-93952 rtc8564: bit-reserved: "Reserved bit" "Reserved" "Rsvd" "R"
93952-93972 rtc8564: bit-reserved: "Reserved bit" "Reserved" "Rsvd" "R"
93972-93993 rtc8564: bit-reserved: "Reserved bit" "Reserved" "Rsvd" "R"
93993-94013 rtc8564: bit-reserved: "Reserved bit" "Reserved" "Rsvd" "R"
94013-94075 rtc8564: reg-0x06: "Weekday: 2" "WD: 2" "WD" "W"
94094-94258 rtc8564: reg-write: "Read register 07: 51" "Read reg 07: 51" "RR 07: 51" "RR" "R"
94094-94115 rtc8564: bit-century: "Century bit: 0" "Century: 0" "Cent: 0" "C: 0" "C"
94115-94135 rtc8564: bit-reserved: "Reserved bit" "Reserved" "Rsvd" "R"
94135-94155 rtc8564: bit-reserved: "Reserved bit" "Reserved" "Rsvd" "R"
94155-94258 rtc8564: reg-0x07: "Month: 11" "Mon: 11" "M: 11" "M"
94277-94441 rtc8564: reg-write: "Read register 08: 11" "Read reg 08: 11" "RR 08: 11" "RR" "R"
94277-94441 rtc8564: reg-0x08: "Year: 11" "Y: 11" "Y"
92580-94471 rtc8564: write: "Read date/time: 22.11.11 04:03:54" "Read: 22.11.11 04:03:54" "R: 22.11.11 04:03:54"
95517-95679 rtc8564: reg-write: "Write register 02: 54" "Write reg 02: 54" "WR 02: 54" "WR" "W"
95517-95537 rtc8564: bit-vl: "Voltage low: 0" "Volt. low: 0" "VL: 0" "VL"
95537-95679 rtc8564: reg-0x02: "Second: 54" "Sec: 54" "S: 54" "S"
95700-95862 rtc8564: reg-write: "Write register 03: 03" "Write reg 03: 03" "WR 03: 03" "WR" "W"
95700-95720 rtc8564: bit-reserved: "Reserved bit" "Reserved" "Rsvd" "R"
95720-95862 rtc8564: reg-0x03: "Minute: 3" "Min: 3" "M: 3" "M"
95883-96045 rtc8564: reg-write: "Write register 04: 04" "Write reg 04: 04" "WR 04: 04" "WR" "W"
95883-95903 rtc8564: bit-reserved: "Reserved bit" "Reserved" "Rsvd" "R"
95903-95923 rtc8564: bit-reserved: "Reserved bit" "Reserved" "Rsvd" "R"
95923-96045 rtc8564: reg-0x04: "Hour: 4" "H: 4" "H"
96066-96228 rtc8564: reg-write: "Write register 05: 22" "Write reg 05: 22" "WR 05: 22" "WR" "W"
96066-96086 rtc8564: bit-reserved: "Reserved bit" "Reserved" "Rsvd" "R"
96086-96106 rtc8564: bit-reserved: "Reserved bit" "Reserved" "Rsvd" "R"
96106-96228 rtc8564: reg-0x05: "Day: 22" "D: 22" "D"
96249-96411 rtc8564: reg-write: "Write register 06: 02" "Write reg 06: 02" "WR 06: 02" "WR" "W"
96249-96269 rtc8564: bit-reserved: "Reserved bit" "Reserved" "Rsvd" "R"
96269-96289 rtc8564: bit-reserved: "Reserved bit" "Reserved" "Rsvd" "R"
96289-96310 rtc8564: bit-reserved: "Reserved bit" "Reserved" "Rsvd" "R"
96310-96330 rtc8564: bit-reserved: "Reserved bit" "Reserved" "Rsvd" "R"
96330-96350 rtc8564: bit-reserved: "Reserved bit" "Reserved" "Rsvd" "R"
96350-96411 rtc8564: reg-0x06: "Weekday: 2" "WD: 2" "WD" "W"
96432-96594 rtc8564: reg-write: "Write register 07: 11" "Write reg 07: 11" "WR 07: 11" "WR" "W"
96432-96452 rtc8564: bit-century: "Century bit: 0" "Century: 0" "Cent: 0" "C: 0" "C"
96452-96472 rtc8564: bit-reserved: "Reserved bit" "Reserved" "Rsvd" "R"
96472-96493 rtc8564: bit-reserved: "Reserved bit" "Reserved" "Rsvd" "R"
96493-96594 rtc8564: reg-0x07: "Month: 11" "Mon: 11" "M: 11" "M"
96615-96777 rtc8564: reg-write: "Write register 08: 11" "Write reg 08: 11" "WR 08: 11" "WR" "W"
96615-96777 rtc8564: reg-0x08: "Year: 11" "Y: 11" "Y"
95130-96808 rtc8564: read: "Write date/time: 22.11.11 04:03:54" "Write: 22.11.11 04:03:54" "W: 22.11.11 04:03:54"
98069-98231 rtc8564: reg-write: "Read register 02: 54" "Read reg 02: 54" "RR 02: 54" "RR" "R"
98069-98089 rtc8564: bit-vl: "Voltage low: 0" "Volt. low: 0" "VL: 0" "VL"
98089-98231 rtc8564: reg-0x02: "Second: 54" "Sec: 54" "S: 54" "S"
98252-98414 rtc8564: reg-write: "Read register 03: 03" "Read reg 03: 03" "RR 03: 03" "RR" "R"
98252-98272 rtc8564: bit-reserved: "Reserved bit" "Reserved" "Rsvd" "R"
98272-98414 rtc8564: reg-0x03: "Minute: 3" "Min: 3" "M: 3" "M"
98435-98597 rtc8564: reg-write: "Read register 04: 44" "Read reg 04: 44" "RR 04: 44" "RR" "R"
98435-98455 rtc8564: bit-reserved: "Reserved bit" "Reserved" "Rsvd" "R"
98455-98476 rtc8564: bit-reserved: "Reserved bit" "Reserved" "Rsvd" "R"
98476-98597 rtc8564: reg-0x04: "Hour: 4" "H: 4" "H"
98618-98780 rtc8564: reg-write: "Read register 05: 62" "Read reg 05: 62" "RR 05: 62" "RR" "R"
98618-98638 rtc8564: bit-reserved: "Reserved bit" "Reserved" "Rsvd" "R"
98638-98659 rtc8564: bit-reserved: "Reserved bit" "Reserved" "Rsvd" "R"
98659-98780 rtc8564: reg-0x05: "Day: 22" "D: 22" "D"
98801-98963 rtc8564: reg-write: "Read register 06: 52" "Read reg 06: 52" "RR 06: 52" "RR" "R"
98801-98821 rtc8564: bit-reserved: "Reserved bit" "Reserved" "Rsvd" "R"
98821-98842 rtc8564: bit-reserved: "Reserved bit" "Reserved" "Rsvd" "R"
98842-98862 rtc8564: bit-reserved: "Reserved bit" "Reserved" "Rsvd" "R"
98862-98882 rtc8564: bit-reserved: "Reserved bit" "Reserved" "Rsvd" "R"
98882-98903 rtc8564: bit-reserved: "Reserved bit" "Reserved" "Rsvd" "R"
98903-98963 rtc8564: reg-0x06: "Weekday: 2" "WD: 2" "WD" "W"
98984-99146 rtc8564: reg-write: "Read register 07: 51" "Read reg 07: 51" "RR 07: 51" "RR" "R"
98984-99004 rtc8564: bit-century: "Century bit: 0" "Century: 0" "Cent: 0" "C: 0" "C"
99004-99025 rtc8564: bit-reserved: "Reserved bit" "Reserved" "Rsvd" "R"
99025-99045 rtc8564: bit-reserved: "Reserved bit" "Reserved" "Rsvd" "R"
99045-99146 rtc8564: reg-0x07: "Month: 11" "Mon: 11" "M: 11" "M"
99167-99329 rtc8564: reg-write: "Read register 08: 11" "Read reg 08: 11" "RR 08: 11" "RR" "R"
99167-99329 rtc8564: reg-0x08: "Year: 11" "Y: 11" "Y"
97469-99360 rtc8564: write: "Read date/time: 22.11.11 04:03:54" "Read: 22.11.11 04:03:54" "R: 22.11.11 04:03:54"
100406-100568 rtc8564: reg-write: "Write register 02: 54" "Write reg 02: 54" "WR 02: 54" "WR" "W"
100406-100426 rtc8564: bit-vl: "Voltage low: 0" "Volt. low: 0" "VL: 0" "VL"
100426-100568 rtc8564: reg-0x02: "Second: 54" "Sec: 54" "S: 54" "S"
100589-100751 rtc8564: reg-write: "Write register 03: 03" "Write reg 03: 03" "WR 03: 03" "WR" "W"
100589-100609 rtc8564: bit-reserved: "Reserved bit" "Reserved" "Rsvd" "R"
100609-100751 rtc8564: reg-0x03: "Minute: 3" "Min: 3" "M: 3" "M"
100772-100934 rtc8564: reg-write: "Write register 04: 04" "Write reg 04: 04" "WR 04: 04" "WR" "W"
100772-100792 rtc8564: bit-reserved: "Reserved bit" "Reserved" "Rsvd" "R"
100792-100813 rtc8564: bit-reserved: "Reserved bit" "Reserved" "Rsvd" "R"
100813-100934 rtc8564: reg-0x04: "Hour: 4" "H: 4" "H"
100955-101117 rtc8564: reg-write: "Write register 05: 22" "Write reg 05: 22" "WR 05: 22" "WR" "W"
100955-100975 rtc8564: bit-reserved: "Reserved bit" "Reserved" "Rsvd" "R"
100975-100996 rtc8564: bit-reserved: "Reserved bit" "Reserved" "Rsvd" "R"
100996-101117 rtc8564: reg-0x05: "Day: 22" "D: 22" "D"
101138-101300 rtc8564: reg-write: "Write register 06: 02" "Write reg 06: 02" "WR 06: 02" "WR" "W"
101138-101158 rtc8564: bit-reserved: "Reserved bit" "Reserved" "Rsvd" "R"
101158-101179 rtc8564: bit-reserved: "Reserved bit" "Reserved" "Rsvd" "R"
101179-101199 rtc8564: bit-reserved: "Reserved bit" "Reserved" "Rsvd" "R"
101199-101219 rtc8564: bit-reserved: "Reserved bit" "Reserved" "Rsvd" "R"
101219-101240 rtc8564: bit-reserved: "Reserved bit" "Reserved" "Rsvd" "R"
101240-101300 rtc8564: reg-0x06: "Weekday: 2" "WD: 2" "WD" "W"
101321-101483 rtc8564: reg-write: "Write register 07: 11" "Write reg 07: 11" "WR 07: 11" "WR" "W"
101321-101341 rtc8564: bit-century: "Century bit: 0" "Century: 0" "Cent: 0" "C: 0" "C"
101341-101362 rtc8564: bit-reserved: "Reserved bit" "Reserved" "Rsvd" "R"
101362-101382 rtc8564: bit-reserved: "Reserved bit" "Reserved" "Rsvd" "R"
101382-101483 rtc8564: reg-0x07: "Month: 11" "Mon: 11" "M: 11" "M"
101504-101666 rtc8564: reg-write: "Write register 08: 11" "Write reg 08: 11" "WR 08: 11" "WR" "W"
101504-101666 rtc8564: reg-0x08: "Year: 11" "Y: 11" "Y"
100020-101697 rtc8564: read: "Write date/time: 22.11.11 04:03:54" "Write: 22.11.11 04:03:54" "W: 22.11.11 04:03:54"
102959-103121 rtc8564: reg-write: "Read register 02: 54" "Read reg 02: 54" "RR 02: 54" "RR" "R"
102959-102979 rtc8564: bit-vl: "Voltage low: 0" "Volt. low: 0" "VL: 0" "VL"
102979-103121 rtc8564: reg-0x02: "Second: 54" "Sec: 54" "S: 54" "S"
103142-103304 rtc8564: reg-write: "Read register 03: 03" "Read reg 03: 03" "RR 03: 03" "RR" "R"
103142-103162 rtc8564: bit-reserved: "Reserved bit" "Reserved" "Rsvd" "R"
103162-103304 rtc8564: reg-0x03: "Minute: 3" "Min: 3" "M: 3" "M"
103325-103487 rtc8564: reg-write: "Read register 04: 44" "Read reg 04: 44" "RR 04: 44" "RR" "R"
103325-103345 rtc8564: bit-reserved: "Reserved bit" "Reserved" "Rsvd" "R"
103345-103365 rtc8564: bit-reserved: "Reserved bit" "Reserved" "Rsvd" "R"
103365-103487 rtc8564: reg-0x04: "Hour: 4" "H: 4" "H"
103508-103670 rtc8564: reg-write: "Read register 05: 62" "Read reg 05: 62" "RR 05: 62" "RR" "R"
103508-103528 rtc8564: bit-reserved: "Reserved bit" "Reserved" "Rsvd" "R"
103528-103548 rtc8564: bit-reserved: "Reserved bit" "Reserved" "Rsvd" "R"
103548-103670 rtc8564: reg-0x05: "Day: 22" "D: 22" "D"
103691-103853 rtc8564: reg-write: "Read register 06: 52" "Read reg 06: 52" "RR 06: 52" "RR" "R"
103691-103711 rtc8564: bit-reserved: "Reserved bit" "Reserved" "Rsvd" "R"
103711-103731 rtc8564: bit-reserved: "Reserved bit" "Reserved" "Rsvd" "R"
103731-103752 rtc8564: bit-reserved: "Reserved bit" "Reserved" "Rsvd" "R"
103752-103772 rtc8564: bit-reserved: "Reserved bit" "Reserved" "Rsvd" "R"
103772-103792 rtc8564: bit-reserved: "Reserved bit" "Reserved" "Rsvd" "R"
103792-103853 rtc8564: reg-0x06: "Weekday: 2" "WD: 2" "WD" "W"
103874-104036 rtc8564: reg-write: "Read register 07: 51" "Read reg 07: 51" "RR 07: 51" "RR" "R"
103874-103894 rtc8564: bit-century: "Century bit: 0" "Century: 0" "Cent: 0" "C: 0" "C"
103894-103914 rtc8564: bit-reserved: "Reserved bit" "Reserved" "Rsvd" "R"
103914-103935 rtc8564: bit-reserved: "Reserved bit" "Reserved" "Rsvd" "R"
103935-104036 rtc8564: reg-0x07: "Month: 11" "Mon: 11" "M: 11" "M"
104057-104219 rtc8564: reg-write: "Read register 08: 11" "Read reg 08: 11" "RR 08: 11" "RR" "R"
104057-104219 rtc8564: reg-0x08: "Year: 11" "Y: 11" "Y"
102359-104250 rtc8564: write: "Read date/time: 22.11.11 04:03:54" "Read: 22.11.11 04:03:54" "R: 22.11.11 04:03:54"
105295-105459 rtc8564: reg-write: "Write register 02: 54" "Write reg 02: 54" "WR 02: 54" "WR" "W"
105295-105316 rtc8564: bit-vl: "Voltage low: 0" "Volt. low: 0" "VL: 0" "VL"
105316-105459 rtc8564: reg-0x02: "Second: 54" "Sec: 54" "S: 54" "S"
105478-105642 rtc8564: reg-write: "Write register 03: 03" "Write reg 03: 03" "WR 03: 03" "WR" "W"
105478-105499 rtc8564: bit-reserved: "Reserved bit" "Reserved" "Rsvd" "R"
105499-105642 rtc8564: reg-0x03: "Minute: 3" "Min: 3" "M: 3" "M"
105661-105825 rtc8564: reg-write: "Write register 04: 04" "Write reg 04: 04" "WR 04: 04" "WR" "W"
105661-105682 rtc8564: bit-reserved: "Reserved bit" "Reserved" "Rsvd" "R"
105682-105702 rtc8564: bit-reserved: "Reserved bit" "Reserved" "Rsvd" "R"
105702-105825 rtc8564: reg-0x04: "Hour: 4" "H: 4" "H"
105844-106008 rtc8564: reg-write: "Write register 05: 22" "Write reg 05: 22" "WR 05: 22" "WR" "W"
105844-105865 rtc8564: bit-reserved: "Reserved bit" "Reserved" "Rsvd" "R"
105865-105885 rtc8564: bit-reserved: "Reserved bit" "Reserved" "Rsvd" "R"
105885-106008 rtc8564: reg-0x05: "Day: 22" "D: 22" "D"
106027-106191 rtc8564: reg-write: "Write register 06: 02" "Write reg 06: 02" "WR 06: 02" "WR" "W"
106027-106048 rtc8564: bit-reserved: "Reserved bit" "Reserved" "Rsvd" "R"
106048-106068 rtc8564: bit-reserved: "Reserved bit" "Reserved" "Rsvd" "R"
106068-106088 rtc8564: bit-reserved: "Reserved bit" "Reserved" "Rsvd" "R"
106088-106109 rtc8564: bit-reserved: "Reserved bit" "Reserved" "Rsvd" "R"
106109-106129 rtc8564: bit-reserved: "Reserved bit" "Reserved" "Rsvd" "R"
106129-106191 rtc8564: reg-0x06: "Weekday: 2" "WD: 2" "WD" "W"
106210-106374 rtc8564: reg-write: "Write register 07: 11" "Write reg 07: 11" "WR 07: 11" "WR" "W"
106210-106231 rtc8564: bit-century: "Century bit: 0" "Century: 0" "Cent: 0" "C: 0" "C"
106231-106251 rtc8564: bit-reserved: "Reserved bit" "Reserved" "Rsvd" "R"
106251-106271 rtc8564: bit-reserved: "Reserved bit" "Reserved" "Rsvd" "R"
106271-106374 rtc8564: reg-0x07: "Month: 11" "Mon: 11" "M: 11" "M"
106393-106557 rtc8564: reg-write: "Write register 08: 11" "Write reg 08: 11" "WR 08: 11" "WR" "W"
106393-106557 rtc8564: reg-0x08: "Year: 11" "Y: 11" "Y"
104909-106587 rtc8564: read: "Write date/time: 22.11.11 04:03:54" "Write: 22.11.11 04:03:54" "W: 22.11.11 04:03:54"
107848-108010 rtc8564: reg-write: "Read register 02: 54" "Read reg 02: 54" "RR 02: 54" "RR" "R"
107848-107868 rtc8564: bit-vl: "Voltage low: 0" "Volt. low: 0" "VL: 0" "VL"
107868-108010 rtc8564: reg-0x02: "Second: 54" "Sec: 54" "S: 54" "S"
108031-108193 rtc8564: reg-write: "Read register 03: 03" "Read reg 03: 03" "RR 03: 03" "RR" "R"
108031-108051 rtc8564: bit-reserved: "Reserved bit" "Reserved" "Rsvd" "R"
108051-108193 rtc8564: reg-0x03: "Minute: 3" "Min: 3" "M: 3" "M"
108214-108376 rtc8564: reg-write: "Read register 04: 44" "Read reg 04: 44" "RR 04: 44" "RR" "R"
108214-108234 rtc8564: bit-reserved: "Reserved bit" "Reserved" "Rsvd" "R"
108234-108255 rtc8564: bit-reserved: "Reserved bit" "Reserved" "Rsvd" "R"
108255-108376 rtc8564: reg-0x04: "Hour: 4" "H: 4" "H"
108397-108559 rtc8564: reg-write: "Read register 05: 62" "Read reg 05: 62" "RR 05: 62" "RR" "R"
108397-108417 rtc8564: bit-reserved: "Reserved bit" "Reserved" "Rsvd" "R"
108417-108438 rtc8564: bit-reserved: "Reserved bit" "Reserved" "Rsvd" "R"
108438-108559 rtc8564: reg-0x05: "Day: 22" "D: 22" "D"
108580-108742 rtc8564: reg-write: "Read register 06: 52" "Read reg 06: 52" "RR 06: 52" "RR" "R"
108580-108600 rtc8564: bit-reserved: "Reserved bit" "Reserved" "Rsvd" "R"
108600-108621 rtc8564: bit-reserved: "Reserved bit" "Reserved" "Rsvd" "R"
108621-108641 rtc8564: bit-reserved: "Reserved bit" "Reserved" "Rsvd" "R"
108641-108661 rtc8564: bit-reserved: "Reserved bit" "Reserved" "Rsvd" "R"
108661-108682 rtc8564: bit-reserved: "Reserved bit" "Reserved" "Rsvd" "R"
108682-108742 rtc8564: reg-0x06: "Weekday: 2" "WD: 2" "WD" "W"
108763-108925 rtc8564: reg-write: "Read register 07: 51" "Read reg 07: 51" "RR 07: 51" "RR" "R"
108763-108783 rtc8564: bit-century: "Century bit: 0" "Century: 0" "Cent: 0" "C: 0" "C"
108783-108804 rtc8564: bit-reserved: "Reserved bit" "Reserved" "Rsvd" "R"
108804-108824 rtc8564: bit-reserved: "Reserved bit" "Reserved" "Rsvd" "R"
108824-108925 rtc8564: reg-0x07: "Month: 11" "Mon: 11" "M: 11" "M"
108946-109108 rtc8564: reg-write: "Read register 08: 11" "Read reg 08: 11" "RR 08: 11" "RR" "R"
108946-109108 rtc8564: reg-0x08: "Year: 11" "Y: 11" "Y"
107248-109139 rtc8564: write: "Read date/time: 22.11.11 04:03:54" "Read: 22.11.11 04:03:54" "R: 22.11.11 04:03:54"
110185-110349 rtc8564: reg-write: "Write register 02: 54" "Write reg 02: 54" "WR 02: 54" "WR" "W"
110185-110206 rtc8564: bit-vl: "Voltage low: 0" "Volt. low: 0" "VL: 0" "VL"
110206-110349 rtc8564: reg-0x02: "Second: 54" "Sec: 54" "S: 54" "S"
110368-110532 rtc8564: reg-write: "Write register 03: 03" "Write reg 03: 03" "WR 03: 03" "WR" "W"
110368-110389 rtc8564: bit-reserved: "Reserved bit" "Reserved" "Rsvd" "R"
110389-110532 rtc8564: reg-0x03: "Minute: 3" "Min: 3" "M: 3" "M"
110551-110715 rtc8564: reg-write: "Write register 04: 04" "Write reg 04: 04" "WR 04: 04" "WR" "W"
110551-110572 rtc8564: bit-reserved: "Reserved bit" "Reserved" "Rsvd" "R"
110572-110592 rtc8564: bit-reserved: "Reserved bit" "Reserved" "Rsvd" "R"
110592-110715 rtc8564: reg-0x04: "Hour: 4" "H: 4" "H"
110734-110898 rtc8564: reg-write: "Write register 05: 22" "Write reg 05: 22" "WR 05: 22" "WR" "W"
110734-110755 rtc8564: bit-reserved: "Reserved bit" "Reserved" "Rsvd" "R"
110755-110775 rtc8564: bit-reserved: "Reserved bit" "Reserved" "Rsvd" "R"
110775-110898 rtc8564: reg-0x05: "Day: 22" "D: 22" "D"
110917-111081 rtc8564: reg-write: "Write register 06: 02" "Write reg 06: 02" "WR 06: 02" "WR" "W"
110917-110938 rtc8564: bit-reserved: "Reserved bit" "Reserved" "Rsvd" "R"
110938-110958 rtc8564: bit-reserved: "Reserved bit" "Reserved" "Rsvd" "R"
110958-110978 rtc8564: bit-reserved: "Reserved bit" "Reserved" "Rsvd" "R"
110978-110999 rtc8564: bit-reserved: "Reserved bit" "Reserved" "Rsvd" "R"
110999-111019 rtc8564: bit-reserved: "Reserved bit" "Reserved" "Rsvd" "R"
111019-111081 rtc8564: reg-0x06: "Weekday: 2" "WD: 2" "WD" "W"
111100-111264 rtc8564: reg-write: "Write register 07: 11" "Write reg 07: 11" "WR 07: 11" "WR" "W"
111100-111121 rtc8564: bit-century: "Century bit: 0" "Century: 0" "Cent: 0" "C: 0" "C"
111121-111141 rtc8564: bit-reserved: "Reserved bit" "Reserved" "Rsvd" "R"
111141-111161 rtc8564: bit-reserved: "Reserved bit" "Reserved" "Rsvd" "R"
111161-111264 rtc8564: reg-0x07: "Month: 11" "Mon: 11" "M: 11" "M"
111283-111447 rtc8564: reg-write: "Write register 08: 11" "Write reg 08: 11" "WR 08: 11" "WR" "W"
111283-111447 rtc8564: reg-0x08: "Year: 11" "Y: 11" "Y"
109799-111476 rtc8564: read: "Write date/time: 22.11.11 04:03:54" "Write: 22.11.11 04:03:54" "W: 22.11.11 04:03:54"
112738-112900 rtc8564: reg-write: "Read register 02: 54" "Read reg 02: 54" "RR 02: 54" "RR" "R"
112738-112758 rtc8564: bit-vl: "Voltage low: 0" "Volt. low: 0" "VL: 0" "VL"
